Freq.	V(n004)/V(ampli:n003)	V(n004)/V(ampli:n010)
1.00000000000000e-001	(5.66344898862009e+001dB,-1.79998013064316e+002°)	(5.47095874110742e+001dB,1.79998266817417e+002°)
1.03526492384138e-001	(5.66344898896148e+001dB,-1.79998067080155e+002°)	(5.47095874086786e+001dB,1.79998307028034e+002°)
1.07177346253629e-001	(5.66344898928353e+001dB,-1.79998118774114e+002°)	(5.47095874064277e+001dB,1.79998345205002e+002°)
1.10956947206785e-001	(5.66344898958605e+001dB,-1.79998168208295e+002°)	(5.47095874042937e+001dB,1.79998381394183e+002°)
1.14869835499704e-001	(5.66344898987283e+001dB,-1.79998215442086e+002°)	(5.47095874022907e+001dB,1.79998415639053e+002°)
1.18920711500272e-001	(5.66344899014376e+001dB,-1.79998260532232e+002°)	(5.47095874003947e+001dB,1.79998447980755e+002°)
1.23114441334492e-001	(5.66344899039788e+001dB,-1.79998303532902e+002°)	(5.47095873985753e+001dB,1.79998478458142e+002°)
1.27456062731926e-001	(5.66344899064017e+001dB,-1.79998344495758e+002°)	(5.47095873968618e+001dB,1.79998507107831e+002°)
1.31950791077289e-001	(5.66344899086867e+001dB,-1.79998383470013e+002°)	(5.47095873952162e+001dB,1.79998533964243e+002°)
1.36604025675440e-001	(5.66344899108627e+001dB,-1.79998420502491e+002°)	(5.47095873936497e+001dB,1.79998559059644e+002°)
1.41421356237310e-001	(5.66344899129308e+001dB,-1.79998455637686e+002°)	(5.47095873921468e+001dB,1.79998582424188e+002°)
1.46408569594563e-001	(5.66344899149247e+001dB,-1.79998488917812e+002°)	(5.47095873907256e+001dB,1.79998604085946e+002°)
1.51571656651040e-001	(5.66344899168085e+001dB,-1.79998520382856e+002°)	(5.47095873893357e+001dB,1.79998624070949e+002°)
1.56916819579350e-001	(5.66344899185955e+001dB,-1.79998550070623e+002°)	(5.47095873879767e+001dB,1.79998642403209e+002°)
1.62450479271247e-001	(5.66344899203630e+001dB,-1.79998578016788e+002°)	(5.47095873867126e+001dB,1.79998659104758e+002°)
1.68179283050743e-001	(5.66344899220238e+001dB,-1.79998604254930e+002°)	(5.47095873854446e+001dB,1.79998674195666e+002°)
1.74110112659225e-001	(5.66344899236414e+001dB,-1.79998628816580e+002°)	(5.47095873842248e+001dB,1.79998687694071e+002°)
1.80250092522166e-001	(5.66344899253722e+001dB,-1.79998651731254e+002°)	(5.47095873831981e+001dB,1.79998699616197e+002°)
1.86606598307362e-001	(5.66344899268814e+001dB,-1.79998673026491e+002°)	(5.47095873820212e+001dB,1.79998709976376e+002°)
1.93187265784969e-001	(5.66344899283548e+001dB,-1.79998692727886e+002°)	(5.47095873808701e+001dB,1.79998718787064e+002°)
2.00000000000000e-001	(5.66344899297881e+001dB,-1.79998710859117e+002°)	(5.47095873797321e+001dB,1.79998726058856e+002°)
2.07052984768276e-001	(5.66344899312156e+001dB,-1.79998727441980e+002°)	(5.47095873786334e+001dB,1.79998731800500e+002°)
2.14354692507259e-001	(5.66344899325766e+001dB,-1.79998742496410e+002°)	(5.47095873775062e+001dB,1.79998736018904e+002°)
2.21913894413569e-001	(5.66344899339644e+001dB,-1.79998756040506e+002°)	(5.47095873764370e+001dB,1.79998738719148e+002°)
2.29739670999407e-001	(5.66344899352843e+001dB,-1.79998768090555e+002°)	(5.47095873753254e+001dB,1.79998739904489e+002°)
2.37841423000545e-001	(5.66344899365976e+001dB,-1.79998778661046e+002°)	(5.47095873742273e+001dB,1.79998739576364e+002°)
2.46228882668984e-001	(5.66344899378899e+001dB,-1.79998787764695e+002°)	(5.47095873731234e+001dB,1.79998737734393e+002°)
2.54912125463853e-001	(5.66344899391715e+001dB,-1.79998795412453e+002°)	(5.47095873720199e+001dB,1.79998734376375e+002°)
2.63901582154579e-001	(5.66344899404563e+001dB,-1.79998801613525e+002°)	(5.47095873709272e+001dB,1.79998729498292e+002°)
2.73208051350880e-001	(5.66344899417301e+001dB,-1.79998806375376e+002°)	(5.47095873698279e+001dB,1.79998723094296e+002°)
2.82842712474620e-001	(5.66344899429849e+001dB,-1.79998809703743e+002°)	(5.47095873687120e+001dB,1.79998715156709e+002°)
2.92817139189126e-001	(5.66344899442204e+001dB,-1.79998811602639e+002°)	(5.47095873675771e+001dB,1.79998705676009e+002°)
3.03143313302080e-001	(5.66344899454657e+001dB,-1.79998812074362e+002°)	(5.47095873664512e+001dB,1.79998694640819e+002°)
3.13833639158701e-001	(5.66344899467231e+001dB,-1.79998811119492e+002°)	(5.47095873653358e+001dB,1.79998682037896e+002°)
3.24900958542495e-001	(5.66344899479437e+001dB,-1.79998808736899e+002°)	(5.47095873641818e+001dB,1.79998667852112e+002°)
3.36358566101487e-001	(5.66344899495066e+001dB,-1.79998804923731e+002°)	(5.47095873633673e+001dB,1.79998652066438e+002°)
3.48220225318451e-001	(5.66344899506915e+001dB,-1.79998799675422e+002°)	(5.47095873621755e+001dB,1.79998634661921e+002°)
3.60500185044333e-001	(5.66344899519034e+001dB,-1.79998792985678e+002°)	(5.47095873610111e+001dB,1.79998615617663e+002°)
3.73213196614724e-001	(5.66344899531143e+001dB,-1.79998784846472e+002°)	(5.47095873598477e+001dB,1.79998594910795e+002°)
3.86374531569939e-001	(5.66344899542744e+001dB,-1.79998775248035e+002°)	(5.47095873586376e+001dB,1.79998572516450e+002°)
4.00000000000001e-001	(5.66344899554493e+001dB,-1.79998764178844e+002°)	(5.47095873574483e+001dB,1.79998548407733e+002°)
4.14105969536552e-001	(5.66344899565908e+001dB,-1.79998751625607e+002°)	(5.47095873562345e+001dB,1.79998522555686e+002°)
4.28709385014519e-001	(5.66344899577140e+001dB,-1.79998737573248e+002°)	(5.47095873550136e+001dB,1.79998494929257e+002°)
4.43827788827140e-001	(5.66344899589932e+001dB,-1.79998722004887e+002°)	(5.47095873539625e+001dB,1.79998465495263e+002°)
4.59479341998816e-001	(5.66344899600836e+001dB,-1.79998704901823e+002°)	(5.47095873527403e+001dB,1.79998434218345e+002°)
4.75682846001090e-001	(5.66344899614942e+001dB,-1.79998686243510e+002°)	(5.47095873518570e+001dB,1.79998401060931e+002°)
4.92457765337968e-001	(5.66344899625007e+001dB,-1.79998666007528e+002°)	(5.47095873505943e+001dB,1.79998365983187e+002°)
5.09824250927707e-001	(5.66344899634715e+001dB,-1.79998644169566e+002°)	(5.47095873493220e+001dB,1.79998328942972e+002°)
5.27803164309160e-001	(5.66344899644410e+001dB,-1.79998620703382e+002°)	(5.47095873480771e+001dB,1.79998289895786e+002°)
5.46416102701760e-001	(5.66344899653648e+001dB,-1.79998595580779e+002°)	(5.47095873468180e+001dB,1.79998248794716e+002°)
5.65685424949240e-001	(5.66344899664241e+001dB,-1.79998568771568e+002°)	(5.47095873457278e+001dB,1.79998205590382e+002°)
5.85634278378253e-001	(5.66344899672481e+001dB,-1.79998540243534e+002°)	(5.47095873444392e+001dB,1.79998160230875e+002°)
6.06286626604162e-001	(5.66344899680387e+001dB,-1.79998509962393e+002°)	(5.47095873431553e+001dB,1.79998112661699e+002°)
6.27667278317403e-001	(5.66344899691334e+001dB,-1.79998477891757e+002°)	(5.47095873422141e+001dB,1.79998062825698e+002°)
6.49801917084991e-001	(5.66344899701810e+001dB,-1.79998443993086e+002°)	(5.47095873412670e+001dB,1.79998010662997e+002°)
6.72717132202974e-001	(5.66344899708151e+001dB,-1.79998408225644e+002°)	(5.47095873399500e+001dB,1.79997956110922e+002°)
6.96440450636902e-001	(5.66344899714053e+001dB,-1.79998370546448e+002°)	(5.47095873386320e+001dB,1.79997899103931e+002°)
7.21000370088667e-001	(5.66344899721104e+001dB,-1.79998330910220e+002°)	(5.47095873374716e+001dB,1.79997839573532e+002°)
7.46426393229449e-001	(5.66344899727562e+001dB,-1.79998289269330e+002°)	(5.47095873362952e+001dB,1.79997777448199e+002°)
7.72749063139880e-001	(5.66344899731426e+001dB,-1.79998245573739e+002°)	(5.47095873349031e+001dB,1.79997712653292e+002°)
8.00000000000004e-001	(5.66344899738409e+001dB,-1.79998199770940e+002°)	(5.47095873338637e+001dB,1.79997645110964e+002°)
8.28211939073106e-001	(5.66344899740801e+001dB,-1.79998151805895e+002°)	(5.47095873324079e+001dB,1.79997574740065e+002°)
8.57418770029038e-001	(5.66344899748081e+001dB,-1.79998101620969e+002°)	(5.47095873314786e+001dB,1.79997501456051e+002°)
8.87655577654280e-001	(5.66344899749098e+001dB,-1.79998049155861e+002°)	(5.47095873299631e+001dB,1.79997425170876e+002°)
9.18958683997632e-001	(5.66344899755034e+001dB,-1.79997994347528e+002°)	(5.47095873289735e+001dB,1.79997345792890e+002°)
9.51365692002181e-001	(5.66344899754802e+001dB,-1.79997937130116e+002°)	(5.47095873274031e+001dB,1.79997263226730e+002°)
9.84915530675938e-001	(5.66344899757326e+001dB,-1.79997877434877e+002°)	(5.47095873261380e+001dB,1.79997177373202e+002°)
1.01964850185541e+000	(5.66344899758829e+001dB,-1.79997815190085e+002°)	(5.47095873247994e+001dB,1.79997088129164e+002°)
1.05560632861832e+000	(5.66344899756051e+001dB,-1.79997750320955e+002°)	(5.47095873230591e+001dB,1.79996995387401e+002°)
1.09283220540352e+000	(5.66344899755941e+001dB,-1.79997682749545e+002°)	(5.47095873216063e+001dB,1.79996899036499e+002°)
1.13137084989848e+000	(5.66344899758256e+001dB,-1.79997612394673e+002°)	(5.47095873204130e+001dB,1.79996798960707e+002°)
1.17126855675651e+000	(5.66344899754531e+001dB,-1.79997539171809e+002°)	(5.47095873186320e+001dB,1.79996695039802e+002°)
1.21257325320832e+000	(5.66344899753119e+001dB,-1.79997462992982e+002°)	(5.47095873170916e+001dB,1.79996587148941e+002°)
1.25533455663481e+000	(5.66344899749086e+001dB,-1.79997383766667e+002°)	(5.47095873152958e+001dB,1.79996475158514e+002°)
1.29960383416998e+000	(5.66344899745614e+001dB,-1.79997301397682e+002°)	(5.47095873135572e+001dB,1.79996358933988e+002°)
1.34543426440595e+000	(5.66344899740764e+001dB,-1.79997215787069e+002°)	(5.47095873116778e+001dB,1.79996238335743e+002°)
1.39288090127381e+000	(5.66344899734799e+001dB,-1.79997126831974e+002°)	(5.47095873096789e+001dB,1.79996113218906e+002°)
1.44200074017734e+000	(5.66344899729809e+001dB,-1.79997034425528e+002°)	(5.47095873077635e+001dB,1.79995983433178e+002°)
1.49285278645890e+000	(5.66344899722824e+001dB,-1.79996938456716e+002°)	(5.47095873056304e+001dB,1.79995848822652e+002°)
1.54549812627976e+000	(5.66344899713210e+001dB,-1.79996838810245e+002°)	(5.47095873032106e+001dB,1.79995709225624e+002°)
1.60000000000001e+000	(5.66344899703461e+001dB,-1.79996735366400e+002°)	(5.47095873007468e+001dB,1.79995564474405e+002°)
1.65642387814621e+000	(5.66344899694153e+001dB,-1.79996628000909e+002°)	(5.47095872982902e+001dB,1.79995414395110e+002°)
1.71483754005808e+000	(5.66344899681185e+001dB,-1.79996516584787e+002°)	(5.47095872954258e+001dB,1.79995258807461e+002°)
1.77531115530856e+000	(5.66344899670309e+001dB,-1.79996400984182e+002°)	(5.47095872927196e+001dB,1.79995097524557e+002°)
1.83791736799527e+000	(5.66344899657137e+001dB,-1.79996281060218e+002°)	(5.47095872897278e+001dB,1.79994930352663e+002°)
1.90273138400437e+000	(5.66344899638935e+001dB,-1.79996156668822e+002°)	(5.47095872861700e+001dB,1.79994757090966e+002°)
1.96983106135188e+000	(5.66344899625344e+001dB,-1.79996027660556e+002°)	(5.47095872829993e+001dB,1.79994577531342e+002°)
2.03929700371083e+000	(5.66344899606006e+001dB,-1.79995893880436e+002°)	(5.47095872791753e+001dB,1.79994391458101e+002°)
2.11121265723664e+000	(5.66344899584454e+001dB,-1.79995755167742e+002°)	(5.47095872750413e+001dB,1.79994198647730e+002°)
2.18566441080705e+000	(5.66344899562538e+001dB,-1.79995611355832e+002°)	(5.47095872707724e+001dB,1.79993998868623e+002°)
2.26274169979697e+000	(5.66344899542750e+001dB,-1.79995462271935e+002°)	(5.47095872666074e+001dB,1.79993791880807e+002°)
2.34253711351302e+000	(5.66344899516700e+001dB,-1.79995307736948e+002°)	(5.47095872616999e+001dB,1.79993577435649e+002°)
2.42514650641665e+000	(5.66344899490992e+001dB,-1.79995147565216e+002°)	(5.47095872566972e+001dB,1.79993355275559e+002°)
2.51066911326962e+000	(5.66344899462240e+001dB,-1.79994981564316e+002°)	(5.47095872512501e+001dB,1.79993125133681e+002°)
2.59920766833997e+000	(5.66344899431586e+001dB,-1.79994809534818e+002°)	(5.47095872454560e+001dB,1.79992886733574e+002°)
2.69086852881191e+000	(5.66344899399336e+001dB,-1.79994631270049e+002°)	(5.47095872393413e+001dB,1.79992639788876e+002°)
2.78576180254762e+000	(5.66344899363327e+001dB,-1.79994446555847e+002°)	(5.47095872326722e+001dB,1.79992384002964e+002°)
2.88400148035468e+000	(5.66344899322908e+001dB,-1.79994255170298e+002°)	(5.47095872253691e+001dB,1.79992119068597e+002°)
2.98570557291781e+000	(5.66344899285194e+001dB,-1.79994056883474e+002°)	(5.47095872181254e+001dB,1.79991844667543e+002°)
3.09099625255953e+000	(5.66344899241214e+001dB,-1.79993851457156e+002°)	(5.47095872100305e+001dB,1.79991560470205e+002°)
3.20000000000002e+000	(5.66344899197371e+001dB,-1.79993638644544e+002°)	(5.47095872017048e+001dB,1.79991266135216e+002°)
3.31284775629243e+000	(5.66344899144575e+001dB,-1.79993418189966e+002°)	(5.47095871922234e+001dB,1.79990961309036e+002°)
3.42967508011616e+000	(5.66344899091509e+001dB,-1.79993189828565e+002°)	(5.47095871824313e+001dB,1.79990645625522e+002°)
3.55062231061713e+000	(5.66344899037670e+001dB,-1.79992953285988e+002°)	(5.47095871722570e+001dB,1.79990318705494e+002°)
3.67583473599054e+000	(5.66344898972086e+001dB,-1.79992708278049e+002°)	(5.47095871605839e+001dB,1.79989980156275e+002°)
3.80546276800874e+000	(5.66344898910019e+001dB,-1.79992454510390e+002°)	(5.47095871489083e+001dB,1.79989629571219e+002°)
3.93966212270376e+000	(5.66344898840528e+001dB,-1.79992191678131e+002°)	(5.47095871361135e+001dB,1.79989266529228e+002°)
4.07859400742167e+000	(5.66344898767155e+001dB,-1.79991919465498e+002°)	(5.47095871225244e+001dB,1.79988890594240e+002°)
4.22242531447330e+000	(5.66344898688457e+001dB,-1.79991637545449e+002°)	(5.47095871079624e+001dB,1.79988501314709e+002°)
4.37132882161410e+000	(5.66344898602877e+001dB,-1.79991345579276e+002°)	(5.47095870922493e+001dB,1.79988098223060e+002°)
4.52548339959394e+000	(5.66344898516383e+001dB,-1.79991043216202e+002°)	(5.47095870759407e+001dB,1.79987680835128e+002°)
4.68507422702604e+000	(5.66344898420081e+001dB,-1.79990730092959e+002°)	(5.47095870581135e+001dB,1.79987248649581e+002°)
4.85029301283332e+000	(5.66344898318180e+001dB,-1.79990405833350e+002°)	(5.47095870391473e+001dB,1.79986801147311e+002°)
5.02133822653925e+000	(5.66344898209773e+001dB,-1.79990070047798e+002°)	(5.47095870189097e+001dB,1.79986337790811e+002°)
5.19841533667995e+000	(5.66344898093130e+001dB,-1.79989722332878e+002°)	(5.47095869971828e+001dB,1.79985858023534e+002°)
5.38173705762382e+000	(5.66344897966955e+001dB,-1.79989362270835e+002°)	(5.47095869737891e+001dB,1.79985361269223e+002°)
5.57152360509524e+000	(5.66344897837159e+001dB,-1.79988989429078e+002°)	(5.47095869492608e+001dB,1.79984846931213e+002°)
5.76800296070936e+000	(5.66344897699660e+001dB,-1.79988603359663e+002°)	(5.47095869231447e+001dB,1.79984314391720e+002°)
5.97141114583562e+000	(5.66344897550048e+001dB,-1.79988203598755e+002°)	(5.47095868949372e+001dB,1.79983763011100e+002°)
6.18199250511907e+000	(5.66344897390565e+001dB,-1.79987789666071e+002°)	(5.47095868647978e+001dB,1.79983192127074e+002°)
6.40000000000006e+000	(5.66344897223715e+001dB,-1.79987361064301e+002°)	(5.47095868329074e+001dB,1.79982601053936e+002°)
6.62569551258488e+000	(5.66344897091693e+001dB,-1.79986917278510e+002°)	(5.47095868033969e+001dB,1.79981989081722e+002°)
6.85935016023234e+000	(5.66344896901120e+001dB,-1.79986457775538e+002°)	(5.47095867668838e+001dB,1.79981355475388e+002°)
7.10124462123427e+000	(5.66344896699867e+001dB,-1.79985982003327e+002°)	(5.47095867280535e+001dB,1.79980699473879e+002°)
7.35166947198109e+000	(5.66344896481813e+001dB,-1.79985489390281e+002°)	(5.47095866862059e+001dB,1.79980020289246e+002°)
7.61092553601749e+000	(5.66344896251846e+001dB,-1.79984979344573e+002°)	(5.47095866417222e+001dB,1.79979317105689e+002°)
7.87932424540754e+000	(5.66344896007469e+001dB,-1.79984451253435e+002°)	(5.47095865942684e+001dB,1.79978589078583e+002°)
8.15718801484335e+000	(5.66344895749507e+001dB,-1.79983904482422e+002°)	(5.47095865438019e+001dB,1.79977835333457e+002°)
8.44485062894660e+000	(5.66344895475297e+001dB,-1.79983338374651e+002°)	(5.47095864899474e+001dB,1.79977054964949e+002°)
8.74265764322822e+000	(5.66344895183093e+001dB,-1.79982752250010e+002°)	(5.47095864323990e+001dB,1.79976247035711e+002°)
9.05096679918790e+000	(5.66344894867579e+001dB,-1.79982145404345e+002°)	(5.47095863704858e+001dB,1.79975410575294e+002°)
9.37014845405209e+000	(5.66344894539757e+001dB,-1.79981517108604e+002°)	(5.47095863051667e+001dB,1.79974544578967e+002°)
9.70058602566664e+000	(5.66344894185310e+001dB,-1.79980866607979e+002°)	(5.47095862348491e+001dB,1.79973648006526e+002°)
1.00426764530785e+001	(5.66344893808598e+001dB,-1.79980193120982e+002°)	(5.47095861598085e+001dB,1.79972719781031e+002°)
1.03968306733599e+001	(5.66344893412097e+001dB,-1.79979495838514e+002°)	(5.47095860801021e+001dB,1.79971758787520e+002°)
1.07634741152477e+001	(5.66344892987503e+001dB,-1.79978773922899e+002°)	(5.47095859947093e+001dB,1.79970763871669e+002°)
1.11430472101905e+001	(5.66344892534674e+001dB,-1.79978026506865e+002°)	(5.47095859034229e+001dB,1.79969733838401e+002°)
1.15360059214187e+001	(5.66344892051871e+001dB,-1.79977252692513e+002°)	(5.47095858058385e+001dB,1.79968667450454e+002°)
1.19428222916713e+001	(5.66344891543000e+001dB,-1.79976451550233e+002°)	(5.47095857021029e+001dB,1.79967563426891e+002°)
1.23639850102382e+001	(5.66344890998486e+001dB,-1.79975622117592e+002°)	(5.47095855910164e+001dB,1.79966420441567e+002°)
1.28000000000001e+001	(5.66344890415283e+001dB,-1.79974763398175e+002°)	(5.47095854719978e+001dB,1.79965237121530e+002°)
1.32513910251698e+001	(5.66344889798442e+001dB,-1.79973874360388e+002°)	(5.47095853452485e+001dB,1.79964012045371e+002°)
1.37187003204647e+001	(5.66344889140271e+001dB,-1.79972953936222e+002°)	(5.47095852096976e+001dB,1.79962743741523e+002°)
1.42024892424686e+001	(5.66344888463607e+001dB,-1.79972001019960e+002°)	(5.47095850672889e+001dB,1.79961430686472e+002°)
1.47033389439622e+001	(5.66344887714636e+001dB,-1.79971014466885e+002°)	(5.47095849122954e+001dB,1.79960071302980e+002°)
1.52218510720350e+001	(5.66344886919720e+001dB,-1.79969993091852e+002°)	(5.47095847469533e+001dB,1.79958663958115e+002°)
1.57586484908151e+001	(5.66344886071413e+001dB,-1.79968935667900e+002°)	(5.47095845701202e+001dB,1.79957206961343e+002°)
1.63143760296867e+001	(5.66344885167352e+001dB,-1.79967840924773e+002°)	(5.47095843810989e+001dB,1.79955698562475e+002°)
1.68897012578932e+001	(5.66344884203649e+001dB,-1.79966707547389e+002°)	(5.47095841790403e+001dB,1.79954136949574e+002°)
1.74853152864565e+001	(5.66344883173871e+001dB,-1.79965534174267e+002°)	(5.47095839627845e+001dB,1.79952520246772e+002°)
1.81019335983758e+001	(5.66344882076295e+001dB,-1.79964319395884e+002°)	(5.47095837316184e+001dB,1.79950846512015e+002°)
1.87402969081042e+001	(5.66344880905622e+001dB,-1.79963061752993e+002°)	(5.47095834844288e+001dB,1.79949113734736e+002°)
1.94011720513333e+001	(5.66344879650713e+001dB,-1.79961759734861e+002°)	(5.47095832194783e+001dB,1.79947319833438e+002°)
2.00853529061570e+001	(5.66344878316982e+001dB,-1.79960411777455e+002°)	(5.47095829366294e+001dB,1.79945462653184e+002°)
2.07936613467199e+001	(5.66344876895407e+001dB,-1.79959016261570e+002°)	(5.47095826342763e+001dB,1.79943539963021e+002°)
2.15269482304953e+001	(5.66344875375409e+001dB,-1.79957571510881e+002°)	(5.47095823105611e+001dB,1.79941549453301e+002°)
2.22860944203810e+001	(5.66344873776767e+001dB,-1.79956075789913e+002°)	(5.47095819666622e+001dB,1.79939488732876e+002°)
2.30720118428375e+001	(5.66344872042637e+001dB,-1.79954527302009e+002°)	(5.47095815960155e+001dB,1.79937355326306e+002°)
2.38856445833426e+001	(5.66344870190253e+001dB,-1.79952924187098e+002°)	(5.47095811993918e+001dB,1.79935146670783e+002°)
2.47279700204763e+001	(5.66344868209548e+001dB,-1.79951264519510e+002°)	(5.47095807747553e+001dB,1.79932860113115e+002°)
2.56000000000003e+001	(5.66344866141909e+001dB,-1.79949546305616e+002°)	(5.47095803251463e+001dB,1.79930492906490e+002°)
2.65027820503396e+001	(5.66344863884536e+001dB,-1.79947767481549e+002°)	(5.47095798391563e+001dB,1.79928042207321e+002°)
2.74374006409294e+001	(5.66344861438908e+001dB,-1.79945925910567e+002°)	(5.47095793203679e+001dB,1.79925505071595e+002°)
