Freq.	V(n001)/Ix(ampli:I)
1.00000000000000e-001	(9.09503165556207e+001dB,-7.37823668103664e+001°)
1.03526492384138e-001	(9.06737156301525e+001dB,-7.32427216661801e+001°)
1.07177346253629e-001	(9.03987128357891e+001dB,-7.26873240880755e+001°)
1.10956947206785e-001	(9.01254019926459e+001dB,-7.21159330885262e+001°)
1.14869835499704e-001	(8.98538810058453e+001dB,-7.15283262069136e+001°)
1.18920711500272e-001	(8.95842518556274e+001dB,-7.09243019613335e+001°)
1.23114441334492e-001	(8.93166205586163e+001dB,-7.03036824201811e+001°)
1.27456062731926e-001	(8.90510970968392e+001dB,-6.96663158825135e+001°)
1.31950791077289e-001	(8.87877953110559e+001dB,-6.90120796529065e+001°)
1.36604025675440e-001	(8.85268327549730e+001dB,-6.83408828929584e+001°)
1.41421356237310e-001	(8.82683305070143e+001dB,-6.76526695277765e+001°)
1.46408569594563e-001	(8.80124129364957e+001dB,-6.69474211817788e+001°)
1.51571656651040e-001	(8.77592074213313e+001dB,-6.62251601140124e+001°)
1.56916819579350e-001	(8.75088440147810e+001dB,-6.54859521190420e+001°)
1.62450479271247e-001	(8.72614550592518e+001dB,-6.47299093553925e+001°)
1.68179283050743e-001	(8.70171747457870e+001dB,-6.39571930596862e+001°)
1.74110112659225e-001	(8.67761386186295e+001dB,-6.31680161011399e+001°)
1.80250092522166e-001	(8.65384830251168e+001dB,-6.23626453281544e+001°)
1.86606598307362e-001	(8.63043445121609e+001dB,-6.15414036565055e+001°)
1.93187265784969e-001	(8.60738591716653e+001dB,-6.07046718473306e+001°)
2.00000000000000e-001	(8.58471619384199e+001dB,-5.98528899228556e+001°)
2.07052984768276e-001	(8.56243858452709e+001dB,-5.89865581688094e+001°)
2.14354692507259e-001	(8.54056612416468e+001dB,-5.81062376748560e+001°)
2.21913894413569e-001	(8.51911149828099e+001dB,-5.72125503682503e+001°)
2.29739670999407e-001	(8.49808695984368e+001dB,-5.63061785013756e+001°)
2.37841423000545e-001	(8.47750424502796e+001dB,-5.53878635607778e+001°)
2.46228882668984e-001	(8.45737448896638e+001dB,-5.44584045738845e+001°)
2.54912125463853e-001	(8.43770814263940e+001dB,-5.35186557994157e+001°)
2.63901582154579e-001	(8.41851489212193e+001dB,-5.25695237985937e+001°)
2.73208051350880e-001	(8.39980358143148e+001dB,-5.16119638962159e+001°)
2.82842712474620e-001	(8.38158214022315e+001dB,-5.06469760531828e+001°)
2.92817139189126e-001	(8.36385751754345e+001dB,-4.96756001848051e+001°)
3.03143313302080e-001	(8.34663562278762e+001dB,-4.86989109716564e+001°)
3.13833639158701e-001	(8.32992127490431e+001dB,-4.77180122215432e+001°)
3.24900958542495e-001	(8.31371816075958e+001dB,-4.67340308517951e+001°)
3.36358566101487e-001	(8.29802880341177e+001dB,-4.57481105702055e+001°)
3.48220225318451e-001	(8.28285454086537e+001dB,-4.47614053401845e+001°)
3.60500185044333e-001	(8.26819551567143e+001dB,-4.37750727207412e+001°)
3.73213196614724e-001	(8.25405067553009e+001dB,-4.27902671746588e+001°)
3.86374531569939e-001	(8.24041778483655e+001dB,-4.18081334383314e+001°)
4.00000000000001e-001	(8.22729344689894e+001dB,-4.08298000448360e+001°)
4.14105969536552e-001	(8.21467313635858e+001dB,-3.98563730869633e+001°)
4.28709385014519e-001	(8.20255124115704e+001dB,-3.88889303006327e+001°)
4.43827788827140e-001	(8.19092111323561e+001dB,-3.79285155404288e+001°)
4.59479341998816e-001	(8.17977512701734e+001dB,-3.69761337093722e+001°)
4.75682846001090e-001	(8.16910474461830e+001dB,-3.60327461938606e+001°)
4.92457765337968e-001	(8.15890058666086e+001dB,-3.50992668431953e+001°)
5.09824250927707e-001	(8.14915250752007e+001dB,-3.41765585212415e+001°)
5.27803164309160e-001	(8.13984967382335e+001dB,-3.32654302459164e+001°)
5.46416102701760e-001	(8.13098064503943e+001dB,-3.23666349210448e+001°)
5.65685424949240e-001	(8.12253345503559e+001dB,-3.14808676545063e+001°)
5.85634278378253e-001	(8.11449569354632e+001dB,-3.06087646469728e+001°)
6.06286626604162e-001	(8.10685458657714e+001dB,-2.97509026274213e+001°)
6.27667278317403e-001	(8.09959707486434e+001dB,-2.89077988042573e+001°)
6.49801917084991e-001	(8.09270988961595e+001dB,-2.80799112952214e+001°)
6.72717132202974e-001	(8.08617962487056e+001dB,-2.72676399948971e+001°)
6.96440450636902e-001	(8.07999280592222e+001dB,-2.64713278354964e+001°)
7.21000370088667e-001	(8.07413595337592e+001dB,-2.56912623945495e+001°)
7.46426393229449e-001	(8.06859564250215e+001dB,-2.49276778026305e+001°)
7.72749063139880e-001	(8.06335855766431e+001dB,-2.41807569043166e+001°)
8.00000000000004e-001	(8.05841154168881e+001dB,-2.34506336265981e+001°)
8.28211939073106e-001	(8.05374164013194e+001dB,-2.27373955109778e+001°)
8.57418770029038e-001	(8.04933614047577e+001dB,-2.20410863678002e+001°)
8.87655577654280e-001	(8.04518260635262e+001dB,-2.13617090140971e+001°)
9.18958683997632e-001	(8.04126890695227e+001dB,-2.06992280597398e+001°)
9.51365692002181e-001	(8.03758324181699e+001dB,-2.00535727096129e+001°)
9.84915530675938e-001	(8.03411416125968e+001dB,-1.94246395536246e+001°)
1.01964850185541e+000	(8.03085058267821e+001dB,-1.88122953192313e+001°)
1.05560632861832e+000	(8.02778180304733e+001dB,-1.82163795653129e+001°)
1.09283220540352e+000	(8.02489750789577e+001dB,-1.76367072988834e+001°)
1.13137084989848e+000	(8.02218777706865e+001dB,-1.70730714999620e+001°)
1.17126855675651e+000	(8.01964308758669e+001dB,-1.65252455423822e+001°)
1.21257325320832e+000	(8.01725431390141e+001dB,-1.59929855014047e+001°)
1.25533455663481e+000	(8.01501272584217e+001dB,-1.54760323413301e+001°)
1.29960383416998e+000	(8.01290998453894e+001dB,-1.49741139784978e+001°)
1.34543426440595e+000	(8.01093813658380e+001dB,-1.44869472173349e+001°)
1.39288090127381e+000	(8.00908960669019e+001dB,-1.40142395584214e+001°)
1.44200074017734e+000	(8.00735718908083e+001dB,-1.35556908793440e+001°)
1.49285278645890e+000	(8.00573403782234e+001dB,-1.31109949903158e+001°)
1.54549812627976e+000	(8.00421365630818e+001dB,-1.26798410674054e+001°)
1.60000000000001e+000	(8.00278988606594e+001dB,-1.22619149673243e+001°)
1.65642387814621e+000	(8.00145689505637e+001dB,-1.18569004282021e+001°)
1.71483754005808e+000	(8.00020916561006e+001dB,-1.14644801612891e+001°)
1.77531115530856e+000	(7.99904148212699e+001dB,-1.10843368390852e+001°)
1.83791736799527e+000	(7.99794891865660e+001dB,-1.07161539853992e+001°)
1.90273138400437e+000	(7.99692682645679e+001dB,-1.03596167730918e+001°)
1.96983106135188e+000	(7.99597082161582e+001dB,-1.00144127353805e+001°)
2.03929700371083e+000	(7.99507677281401e+001dB,-9.68023239632863e+000°)
2.11121265723664e+000	(7.99424078928109e+001dB,-9.35676982638857e+000°)
2.18566441080705e+000	(7.99345920900807e+001dB,-9.04372312832693e+000°)
2.26274169979697e+000	(7.99272858724891e+001dB,-8.74079485908058e+000°)
2.34253711351302e+000	(7.99204568535185e+001dB,-8.44769239251071e+000°)
2.42514650641665e+000	(7.99140745994090e+001dB,-8.16412822814992e+000°)
2.51066911326962e+000	(7.99081105247414e+001dB,-7.88982025042492e+000°)
2.59920766833997e+000	(7.99025377918640e+001dB,-7.62449194290399e+000°)
2.69086852881191e+000	(7.98973312143234e+001dB,-7.36787256161242e+000°)
2.78576180254762e+000	(7.98924671642698e+001dB,-7.11969727138363e+000°)
2.88400148035468e+000	(7.98879234839268e+001dB,-6.87970724878641e+000°)
2.98570557291781e+000	(7.98836794010704e+001dB,-6.64764975502074e+000°)
3.09099625255953e+000	(7.98797154484641e+001dB,-6.42327818193481e+000°)
3.20000000000002e+000	(7.98760133871996e+001dB,-6.20635207399958e+000°)
3.31284775629243e+000	(7.98725561338711e+001dB,-5.99663712890404e+000°)
3.42967508011616e+000	(7.98693276914315e+001dB,-5.79390517925700e+000°)
3.55062231061713e+000	(7.98663130837220e+001dB,-5.59793415751101e+000°)
3.67583473599054e+000	(7.98634982934044e+001dB,-5.40850804634319e+000°)
3.80546276800874e+000	(7.98608702033406e+001dB,-5.22541681613911e+000°)
3.93966212270376e+000	(7.98584165411623e+001dB,-5.04845635144618e+000°)
4.07859400742167e+000	(7.98561258269503e+001dB,-4.87742836784468e+000°)
4.22242531447330e+000	(7.98539873239055e+001dB,-4.71214032065527e+000°)
4.37132882161410e+000	(7.98519909918273e+001dB,-4.55240530674305e+000°)
4.52548339959394e+000	(7.98501274433080e+001dB,-4.39804196057017e+000°)
4.68507422702604e+000	(7.98483879025334e+001dB,-4.24887434545267e+000°)
4.85029301283332e+000	(7.98467641664640e+001dB,-4.10473184105242e+000°)
5.02133822653925e+000	(7.98452485683992e+001dB,-3.96544902780997e+000°)
5.19841533667995e+000	(7.98438339437202e+001dB,-3.83086556910798e+000°)
5.38173705762382e+000	(7.98425135977027e+001dB,-3.70082609183512e+000°)
5.57152360509524e+000	(7.98412812753311e+001dB,-3.57518006587540e+000°)
5.76800296070936e+000	(7.98401311329375e+001dB,-3.45378168308924e+000°)
5.97141114583562e+000	(7.98390577116330e+001dB,-3.33648973619543e+000°)
6.18199250511907e+000	(7.98380559123815e+001dB,-3.22316749799004e+000°)
6.40000000000006e+000	(7.98371209726169e+001dB,-3.11368260123651e+000°)
6.62569551258488e+000	(7.98362484443721e+001dB,-3.00790691950462e+000°)
6.85935016023234e+000	(7.98354341737563e+001dB,-2.90571644926962e+000°)
7.10124462123427e+000	(7.98346742817536e+001dB,-2.80699119346580e+000°)
7.35166947198109e+000	(7.98339651462402e+001dB,-2.71161504669256e+000°)
7.61092553601749e+000	(7.98333033851378e+001dB,-2.61947568225768e+000°)
7.87932424540754e+000	(7.98326858406761e+001dB,-2.53046444116039e+000°)
8.15718801484335e+000	(7.98321095646645e+001dB,-2.44447622316602e+000°)
8.44485062894660e+000	(7.98315718046601e+001dB,-2.36140938005424e+000°)
8.74265764322822e+000	(7.98310699911175e+001dB,-2.28116561109237e+000°)
9.05096679918790e+000	(7.98306017253011e+001dB,-2.20364986083676e+000°)
9.37014845405209e+000	(7.98301647680128e+001dB,-2.12877021926365e+000°)
9.70058602566664e+000	(7.98297570290488e+001dB,-2.05643782428937e+000°)
1.00426764530785e+001	(7.98293765573954e+001dB,-1.98656676665956e+000°)
1.03968306733599e+001	(7.98290215318668e+001dB,-1.91907399733718e+000°)
1.07634741152477e+001	(7.98286902526936e+001dB,-1.85387923713229e+000°)
1.11430472101905e+001	(7.98283811333493e+001dB,-1.79090488888605e+000°)
1.15360059214187e+001	(7.98280926930956e+001dB,-1.73007595195091e+000°)
1.19428222916713e+001	(7.98278235499202e+001dB,-1.67131993906948e+000°)
1.23639850102382e+001	(7.98275724139980e+001dB,-1.61456679557180e+000°)
1.28000000000001e+001	(7.98273380815684e+001dB,-1.55974882087688e+000°)
1.32513910251698e+001	(7.98271194292119e+001dB,-1.50680059228188e+000°)
1.37187003204647e+001	(7.98269154084907e+001dB,-1.45565889097098e+000°)
1.42024892424686e+001	(7.98267250409768e+001dB,-1.40626263022652e+000°)
1.47033389439622e+001	(7.98265474135783e+001dB,-1.35855278579264e+000°)
1.52218510720350e+001	(7.98263816742003e+001dB,-1.31247232834060e+000°)
1.57586484908151e+001	(7.98262270276610e+001dB,-1.26796615801192e+000°)
1.63143760296867e+001	(7.98260827319209e+001dB,-1.22498104097548e+000°)
1.68897012578932e+001	(7.98259480945159e+001dB,-1.18346554794229e+000°)
1.74853152864565e+001	(7.98258224692727e+001dB,-1.14336999462330e+000°)
1.81019335983758e+001	(7.98257052532118e+001dB,-1.10464638405799e+000°)
1.87402969081042e+001	(7.98255958836611e+001dB,-1.06724835076600e+000°)
1.94011720513333e+001	(7.98254938355655e+001dB,-1.03113110668353e+000°)
2.00853529061570e+001	(7.98253986190002e+001dB,-9.96251388839014e-001°)
2.07936613467199e+001	(7.98253097767590e+001dB,-9.62567408711849e-001°)
2.15269482304953e+001	(7.98252268822533e+001dB,-9.30038803221449e-001°)
2.22860944203810e+001	(7.98251495374144e+001dB,-8.98626587327384e-001°)
2.30720118428375e+001	(7.98250773708077e+001dB,-8.68293108171678e-001°)
2.38856445833426e+001	(7.98250100358684e+001dB,-8.39002000712852e-001°)
2.47279700204763e+001	(7.98249472091235e+001dB,-8.10718144866377e-001°)
2.56000000000003e+001	(7.98248885888557e+001dB,-7.83407623977446e-001°)
2.65027820503396e+001	(7.98248338934788e+001dB,-7.57037684765270e-001°)
2.74374006409294e+001	(7.98247828602689e+001dB,-7.31576698525863e-001°)
2.84049784849372e+001	(7.98247352440563e+001dB,-7.06994123688820e-001°)
2.94066778879245e+001	(7.98246908161196e+001dB,-6.83260469573314e-001°)
3.04437021440700e+001	(7.98246493630095e+001dB,-6.60347261394817e-001°)
3.15172969816302e+001	(7.98246106855839e+001dB,-6.38227006447577e-001°)
3.26287520593735e+001	(7.98245745979850e+001dB,-6.16873161428599e-001°)
3.37794025157865e+001	(7.98245409268488e+001dB,-5.96260100840382e-001°)
3.49706305729130e+001	(7.98245095103993e+001dB,-5.76363086495612e-001°)
3.62038671967517e+001	(7.98244801976981e+001dB,-5.57158238073047e-001°)
3.74805938162085e+001	(7.98244528478772e+001dB,-5.38622504635907e-001°)
3.88023441026667e+001	(7.98244273295554e+001dB,-5.20733637146619e-001°)
4.01707058123142e+001	(7.98244035200657e+001dB,-5.03470161948578e-001°)
4.15873226934398e+001	(7.98243813050365e+001dB,-4.86811355103977e-001°)
4.30538964609907e+001	(7.98243605776903e+001dB,-4.70737217676356e-001°)
4.45721888407621e+001	(7.98243412384670e+001dB,-4.55228451822028e-001°)
4.61440236856751e+001	(7.98243231943812e+001dB,-4.40266437750477e-001°)
4.77712891666852e+001	(7.98243063587671e+001dB,-4.25833211443177e-001°)
4.94559400409527e+001	(7.98242906507061e+001dB,-4.11911443199266e-001°)
5.12000000000007e+001	(7.98242759946882e+001dB,-3.98484416882464e-001°)
5.30055641006792e+001	(7.98242623203003e+001dB,-3.85536009945041e-001°)
5.48748012818590e+001	(7.98242495618344e+001dB,-3.73050674105831e-001°)
5.68099569698744e+001	(7.98242376579560e+001dB,-3.61013416761091e-001°)
5.88133557758490e+001	(7.98242265514837e+001dB,-3.49409783039129e-001°)
6.08874042881402e+001	(7.98242161890068e+001dB,-3.38225838447411e-001°)
6.30345939632606e+001	(7.98242065207687e+001dB,-3.27448152223108e-001°)
6.52575041187471e+001	(7.98241975002413e+001dB,-3.17063781249332e-001°)
6.75588050315731e+001	(7.98241890841281e+001dB,-3.07060254487663e-001°)
6.99412611458260e+001	(7.98241812319832e+001dB,-2.97425558092423e-001°)
7.24077343935035e+001	(7.98241739060325e+001dB,-2.88148120996552e-001°)
7.49611876324171e+001	(7.98241670710580e+001dB,-2.79216801014788e-001°)
7.76046882053335e+001	(7.98241606942569e+001dB,-2.70620871507492e-001°)
8.03414116246284e+001	(7.98241547449731e+001dB,-2.62350008516022e-001°)
8.31746453868797e+001	(7.98241491945804e+001dB,-2.54394278380571e-001°)
8.61077929219816e+001	(7.98241440164247e+001dB,-2.46744125814226e-001°)
8.91443776815244e+001	(7.98241391856381e+001dB,-2.39390362463567e-001°)
9.22880473713504e+001	(7.98241346789490e+001dB,-2.32324155871100e-001°)
9.55425783333705e+001	(7.98241304747656e+001dB,-2.25537018874447e-001°)
9.89118800819056e+001	(7.98241265528099e+001dB,-2.19020799447952e-001°)
1.02400000000002e+002	(7.98241228942947e+001dB,-2.12767670884890e-001°)
1.06011128201359e+002	(7.98241194815929e+001dB,-2.06770122446996e-001°)
1.09749602563718e+002	(7.98241162983376e+001dB,-2.01020950303787e-001°)
1.13619913939749e+002	(7.98241133291893e+001dB,-1.95513248927591e-001°)
1.17626711551698e+002	(7.98241105599024e+001dB,-1.90240402812362e-001°)
1.21774808576280e+002	(7.98241079771700e+001dB,-1.85196078466438e-001°)
1.26069187926521e+002	(7.98241055685489e+001dB,-1.80374216889660e-001°)
1.30515008237494e+002	(7.98241033225104e+001dB,-1.75769026263914e-001°)
1.35117610063146e+002	(7.98241012282405e+001dB,-1.71374974992124e-001°)
1.39882522291652e+002	(7.98240992756464e+001dB,-1.67186785062006e-001°)
1.44815468787007e+002	(7.98240974553689e+001dB,-1.63199425751883e-001°)
1.49922375264834e+002	(7.98240957586751e+001dB,-1.59408107513637e-001°)
1.55209376410667e+002	(7.98240941773574e+001dB,-1.55808276289224e-001°)
1.60682823249257e+002	(7.98240927038737e+001dB,-1.52395608030327e-001°)
1.66349290773760e+002	(7.98240913311042e+001dB,-1.49166003453672e-001°)
1.72215585843964e+002	(7.98240900524485e+001dB,-1.46115583205977e-001°)
1.78288755363049e+002	(7.98240888617765e+001dB,-1.43240683140275e-001°)
1.84576094742701e+002	(7.98240877533929e+001dB,-1.40537849919272e-001°)
1.91085156666741e+002	(7.98240867219058e+001dB,-1.38003836918448e-001°)
1.97823760163812e+002	(7.98240857623892e+001dB,-1.35635600294345e-001°)
2.04800000000003e+002	(7.98240848702625e+001dB,-1.33430295280061e-001°)
2.12022256402718e+002	(7.98240840411886e+001dB,-1.31385272903280e-001°)
2.19499205127437e+002	(7.98240832712309e+001dB,-1.29498076621194e-001°)
2.27239827879498e+002	(7.98240825566511e+001dB,-1.27766439557117e-001°)
2.35253423103397e+002	(7.98240818939942e+001dB,-1.26188281693773e-001°)
2.43549617152561e+002	(7.98240812801568e+001dB,-1.24761707278917e-001°)
2.52138375853043e+002	(7.98240807120947e+001dB,-1.23485002746624e-001°)
2.61030016474989e+002	(7.98240801871207e+001dB,-1.22356634530319e-001°)
2.70235220126293e+002	(7.98240797027297e+001dB,-1.21375247206173e-001°)
2.79765044583305e+002	(7.98240792565960e+001dB,-1.20539661923971e-001°)
2.89630937574015e+002	(7.98240788465170e+001dB,-1.19848875029675e-001°)
2.99844750529669e+002	(7.98240784705572e+001dB,-1.19302056776766e-001°)
3.10418752821335e+002	(7.98240781269375e+001dB,-1.18898550277155e-001°)
3.21365646498515e+002	(7.98240778139497e+001dB,-1.18637870964811e-001°)
3.32698581547520e+002	(7.98240775301531e+001dB,-1.18519705671276e-001°)
3.44431171687928e+002	(7.98240772741147e+001dB,-1.18543912533604e-001°)
3.56577510726099e+002	(7.98240770446717e+001dB,-1.18710520656655e-001°)
3.69152189485403e+002	(7.98240768406852e+001dB,-1.19019730243817e-001°)
3.82170313333483e+002	(7.98240766611893e+001dB,-1.19471912799817e-001°)
3.95647520327624e+002	(7.98240765052826e+001dB,-1.20067611534060e-001°)
4.09600000000007e+002	(7.98240763722483e+001dB,-1.20807542103155e-001°)
4.24044512805436e+002	(7.98240762614542e+001dB,-1.21692593393337e-001°)
4.38998410254874e+002	(7.98240761723536e+001dB,-1.22723828662092e-001°)
4.54479655758998e+002	(7.98240761045219e+001dB,-1.23902486714081e-001°)
4.70506846206794e+002	(7.98240760576076e+001dB,-1.25229983576973e-001°)
4.87099234305124e+002	(7.98240760314398e+001dB,-1.26707913840307e-001°)
5.04276751706087e+002	(7.98240760258613e+001dB,-1.28338053023223e-001°)
5.22060032949979e+002	(7.98240760408075e+001dB,-1.30122359510559e-001°)
5.40470440252588e+002	(7.98240760764390e+001dB,-1.32062976703741e-001°)
5.59530089166611e+002	(7.98240761328387e+001dB,-1.34162235890102e-001°)
5.79261875148031e+002	(7.98240762103552e+001dB,-1.36422658962880e-001°)
5.99689501059339e+002	(7.98240763092683e+001dB,-1.38846961408208e-001°)
6.20837505642671e+002	(7.98240764301407e+001dB,-1.41438055513171e-001°)
6.42731292997030e+002	(7.98240765734106e+001dB,-1.44199054076232e-001°)
6.65397163095041e+002	(7.98240767399819e+001dB,-1.47133273852814e-001°)
6.88862343375856e+002	(7.98240769305511e+001dB,-1.50244239855031e-001°)
7.13155021452198e+002	(7.98240771460327e+001dB,-1.53535689254017e-001°)
7.38304378970806e+002	(7.98240773874688e+001dB,-1.57011576260227e-001°)
7.64340626666967e+002	(7.98240776560072e+001dB,-1.60676076528736e-001°)
7.91295040655249e+002	(7.98240779528707e+001dB,-1.64533592328671e-001°)
8.19200000000016e+002	(7.98240782796325e+001dB,-1.68588757864820e-001°)
8.48089025610873e+002	(7.98240786377756e+001dB,-1.72846444715299e-001°)
8.77996820509748e+002	(7.98240790290569e+001dB,-1.77311767880677e-001°)
9.08959311517996e+002	(7.98240794553324e+001dB,-1.81990091834773e-001°)
9.41013692413589e+002	(7.98240799186536e+001dB,-1.86887036889493e-001°)
9.74198468610248e+002	(7.98240804212366e+001dB,-1.92008485953828e-001°)
1.00855350341218e+003	(7.98240809654993e+001dB,-1.97360591972923e-001°)
1.04412006589996e+003	(7.98240815540733e+001dB,-2.02949784812158e-001°)
1.08094088050518e+003	(7.98240821897986e+001dB,-2.08782779141472e-001°)
1.11906017833322e+003	(7.98240828756734e+001dB,-2.14866582796066e-001°)
1.15852375029606e+003	(7.98240836150591e+001dB,-2.21208504890054e-001°)
1.19937900211868e+003	(7.98240844114076e+001dB,-2.27816164652715e-001°)
1.24167501128534e+003	(7.98240852686993e+001dB,-2.34697500691184e-001°)
