Freq.	V(ampli:n003)	V(ampli:n010)
1.00000000000000e-001	(2.18307810731398e+000dB,-6.39242797054451e+001°)	(4.10798058244061e+000dB,-6.39205595871778e+001°)
1.03526492384138e-001	(2.55031460451444e+000dB,-6.48341057440252e+001°)	(4.47521708545058e+000dB,-6.48304798522143e+001°)
1.07177346253629e-001	(2.91397968668938e+000dB,-6.57308544820150e+001°)	(4.83888217309702e+000dB,-6.57273184611304e+001°)
1.10956947206785e-001	(3.27420959095656e+000dB,-6.66143115588062e+001°)	(5.19911208252328e+000dB,-6.66108611612840e+001°)
1.14869835499704e-001	(3.63113996196430e+000dB,-6.74843233137093e+001°)	(5.55604245840190e+000dB,-6.74809543948488e+001°)
1.18920711500272e-001	(3.98490523062679e+000dB,-6.83407946185344e+001°)	(5.90980773166961e+000dB,-6.83375031315209e+001°)
1.23114441334492e-001	(4.33563804865420e+000dB,-6.91836864648690e+001°)	(6.26054055405775e+000dB,-6.91804684559133e+001°)
1.27456062731926e-001	(4.68346877960499e+000dB,-7.00130133585124e+001°)	(6.60837128914489e+000dB,-7.00098649621017e+001°)
1.31950791077289e-001	(5.02852504623455e+000dB,-7.08288405709540e+001°)	(6.95342755970503e+000dB,-7.08257580052097e+001°)
1.36604025675440e-001	(5.37093133285697e+000dB,-7.16312812928827e+001°)	(7.29583385006998e+000dB,-7.16282608550182e+001°)
1.41421356237310e-001	(5.71080864097522e+000dB,-7.24204937325755e+001°)	(7.63571116175920e+000dB,-7.24175317944494e+001°)
1.46408569594563e-001	(6.04827419561637e+000dB,-7.31966781961527e+001°)	(7.97317671981548e+000dB,-7.31937711999111e+001°)
1.51571656651040e-001	(6.38344119952484e+000dB,-7.39600741835327e+001°)	(8.30834372699763e+000dB,-7.39572186373368e+001°)
1.56916819579350e-001	(6.71641863183365e+000dB,-7.47109575281682e+001°)	(8.64132116245247e+000dB,-7.47081500020006e+001°)
1.62450479271247e-001	(7.04731108778981e+000dB,-7.54496376056550e+001°)	(8.97221362144017e+000dB,-7.54468747272005e+001°)
1.68179283050743e-001	(7.37621865590718e+000dB,-7.61764546317020e+001°)	(9.30112119248631e+000dB,-7.61737330822979e+001°)
1.74110112659225e-001	(7.70323682863979e+000dB,-7.68917770644549e+001°)	(9.62813936805647e+000dB,-7.68890935751056e+001°)
1.80250092522166e-001	(8.02845644310603e+000dB,-7.75959991254969e+001°)	(9.95335898528018e+000dB,-7.75933504729476e+001°)
1.86606598307362e-001	(8.35196364825555e+000dB,-7.82895384490088e+001°)	(1.02768661931157e+001dB,-7.82869214518760e+001°)
1.93187265784969e-001	(8.67383989448061e+000dB,-7.89728338620930e+001°)	(1.05987424419652e+001dB,-7.89702453770426e+001°)
2.00000000000000e-001	(8.99416194308826e+000dB,-7.96463433052640e+001°)	(1.09190644931443e+001dB,-7.96437802232374e+001°)
2.07052984768276e-001	(9.31300189183700e+000dB,-8.03105418901392e+001°)	(1.12379044444193e+001dB,-8.03080011326194e+001°)
2.14354692507259e-001	(9.63042721386625e+000dB,-8.09659200956985e+001°)	(1.15553297689367e+001dB,-8.09633986110123e+001°)
2.21913894413569e-001	(9.94650080709189e+000dB,-8.16129820995512e+001°)	(1.18714033646193e+001dB,-8.16104768592055e+001°)
2.29739670999407e-001	(1.02612810517338e+001dB,-8.22522442416846e+001°)	(1.21861836116927e+001dB,-8.22497522367282e+001°)
2.37841423000545e-001	(1.05748218733779e+001dB,-8.28842336137602e+001°)	(1.24997244357483e+001dB,-8.28817518511703e+001°)
2.46228882668984e-001	(1.08871728097294e+001dB,-8.35094867695739e+001°)	(1.28120753744959e+001dB,-8.35070122686613e+001°)
2.54912125463853e-001	(1.11983790789651e+001dB,-8.41285485484899e+001°)	(1.31232816461166e+001dB,-8.41260783373186e+001°)
2.63901582154579e-001	(1.15084816480800e+001dB,-8.47419710048892e+001°)	(1.34333842176092e+001dB,-8.47395021167064e+001°)
2.73208051350880e-001	(1.18175172996942e+001dB,-8.53503124354074e+001°)	(1.37424198715964e+001dB,-8.53478419050799e+001°)
2.82842712474620e-001	(1.21255186959747e+001dB,-8.59541364954320e+001°)	(1.40504212702477e+001dB,-8.59516613558837e+001°)
2.92817139189126e-001	(1.24325144385332e+001dB,-8.65540113962714e+001°)	(1.43574170151764e+001dB,-8.65515286749188e+001°)
3.03143313302080e-001	(1.27385291232842e+001dB,-8.71505091740290e+001°)	(1.46634317022987e+001dB,-8.71480158892093e+001°)
3.13833639158701e-001	(1.30435833894280e+001dB,-8.77442050212588e+001°)	(1.49684859708153e+001dB,-8.77416981786469e+001°)
3.24900958542495e-001	(1.33476939618185e+001dB,-8.83356766721643e+001°)	(1.52725965455805e+001dB,-8.83331532611749e+001°)
3.36358566101487e-001	(1.36508736860425e+001dB,-8.89255038317250e+001°)	(1.55757762721817e+001dB,-8.89229608218942e+001°)
3.48220225318451e-001	(1.39531315561973e+001dB,-8.95142676420881e+001°)	(1.58780341447132e+001dB,-8.95117019794313e+001°)
3.60500185044333e-001	(1.42544727339683e+001dB,-9.01025501712657e+001°)	(1.61793753248606e+001dB,-9.00999587746065e+001°)
3.73213196614724e-001	(1.45548985601300e+001dB,-9.06909339225163e+001°)	(1.64798011533966e+001dB,-9.06883136797832e+001°)
3.86374531569939e-001	(1.48544065572905e+001dB,-9.12800013494663e+001°)	(1.67793091529273e+001dB,-9.12773491139516e+001°)
4.00000000000001e-001	(1.51529904242457e+001dB,-9.18703343700177e+001°)	(1.70778930222466e+001dB,-9.18676469565942e+001°)
4.14105969536552e-001	(1.54506400220379e+001dB,-9.24625138699911e+001°)	(1.73755426223942e+001dB,-9.24597880512835e+001°)
4.28709385014519e-001	(1.57473413517470e+001dB,-9.30571191865618e+001°)	(1.76722439544473e+001dB,-9.30543516890667e+001°)
4.43827788827140e-001	(1.60430765243850e+001dB,-9.36547275627968e+001°)	(1.79679791294157e+001dB,-9.36519150629469e+001°)
4.59479341998816e-001	(1.63378237234005e+001dB,-9.42559135646655e+001°)	(1.82627263307438e+001dB,-9.42530526848342e+001°)
4.75682846001090e-001	(1.66315571598185e+001dB,-9.48612484490361e+001°)	(1.85564597694556e+001dB,-9.48583357534766e+001°)
4.92457765337968e-001	(1.69242470215834e+001dB,-9.54712994780445e+001°)	(1.88491496334897e+001dB,-9.54683314687599e+001°)
5.09824250927707e-001	(1.72158594165311e+001dB,-9.60866291643854e+001°)	(1.91407620306806e+001dB,-9.60836022769232e+001°)
5.27803164309160e-001	(1.75063563112727e+001dB,-9.67077944451204e+001°)	(1.94312589276366e+001dB,-9.67047050442880e+001°)
5.46416102701760e-001	(1.77956954661210e+001dB,-9.73353457707974e+001°)	(1.97205980846679e+001dB,-9.73321901462923e+001°)
5.65685424949240e-001	(1.80838303675509e+001dB,-9.79698261026113e+001°)	(2.00087329882472e+001dB,-9.79666004645614e+001°)
5.85634278378253e-001	(1.83707101597597e+001dB,-9.86117698100953e+001°)	(2.02956127825686e+001dB,-9.86084702845045e+001°)
6.06286626604162e-001	(1.86562795764071e+001dB,-9.92617014592510e+001°)	(2.05811822012905e+001dB,-9.92583240833425e+001°)
6.27667278317403e-001	(1.89404788748616e+001dB,-9.99201344862785e+001°)	(2.08653815017809e+001dB,-9.99166752037334e+001°)
6.49801917084991e-001	(1.92232437747181e+001dB,-1.00587569749292e+002°)	(2.11481464036321e+001dB,-1.00584024405374e+002°)
6.72717132202974e-001	(1.95045054024606e+001dB,-1.01264493950892e+002°)	(2.14294080333257e+001dB,-1.01260858287458e+002°)
6.96440450636902e-001	(1.97841902448932e+001dB,-1.01951377927872e+002°)	(2.17090928776665e+001dB,-1.01947647578251e+002°)
7.21000370088667e-001	(2.00622201142245e+001dB,-1.02648674805718e+002°)	(2.19871227488632e+001dB,-1.02644845289470e+002°)
7.46426393229449e-001	(2.03385121272282e+001dB,-1.03356818014265e+002°)	(2.22634147636891e+001dB,-1.03352884731794e+002°)
7.72749063139880e-001	(2.06129787015808e+001dB,-1.04076219164660e+002°)	(2.25378813398202e+001dB,-1.04072177391691e+002°)
8.00000000000004e-001	(2.08855275725988e+001dB,-1.04807265789659e+002°)	(2.28104302125760e+001dB,-1.04803110671563e+002°)
8.28211939073106e-001	(2.11560618343012e+001dB,-1.05550318953879e+002°)	(2.30809644759735e+001dB,-1.05546045499840e+002°)
8.57418770029038e-001	(2.14244800071053e+001dB,-1.06305710736033e+002°)	(2.33493826504348e+001dB,-1.06301313813053e+002°)
8.87655577654280e-001	(2.16906761376468e+001dB,-1.07073741601211e+002°)	(2.36155787825935e+001dB,-1.07069215927947e+002°)
9.18958683997632e-001	(2.19545399321685e+001dB,-1.07854677667463e+002°)	(2.38794425786983e+001dB,-1.07850017807881e+002°)
9.51365692002181e-001	(2.22159569297174e+001dB,-1.08648747894882e+002°)	(2.41408595777945e+001dB,-1.08643948251728e+002°)
9.84915530675938e-001	(2.24748087161575e+001dB,-1.09456141207718e+002°)	(2.43997113657521e+001dB,-1.09451196015797e+002°)
1.01964850185541e+000	(2.27309731848589e+001dB,-1.10277003585453e+002°)	(2.46558758359425e+001dB,-1.10271906904703e+002°)
1.05560632861832e+000	(2.29843248454500e+001dB,-1.11111435145425e+002°)	(2.49092274979960e+001dB,-1.11106180853781e+002°)
1.09283220540352e+000	(2.32347351841759e+001dB,-1.11959487254700e+002°)	(2.51596378381638e+001dB,-1.11954069040744e+002°)
1.13137084989848e+000	(2.34820730784897e+001dB,-1.12821159711598e+002°)	(2.54069757339023e+001dB,-1.12815571066977e+002°)
1.17126855675651e+000	(2.37262052669161e+001dB,-1.13696398037393e+002°)	(2.56511079237371e+001dB,-1.13690632249003e+002°)
1.21257325320832e+000	(2.39669968749739e+001dB,-1.14585090924621e+002°)	(2.58918995331942e+001dB,-1.14579141066543e+002°)
1.25533455663481e+000	(2.42043119982883e+001dB,-1.15487067897320e+002°)	(2.61292146579011e+001dB,-1.15480926822501e+002°)
1.29960383416998e+000	(2.44380143403834e+001dB,-1.16402097229686e+002°)	(2.63629170013876e+001dB,-1.16395757561356e+002°)
1.34543426440595e+000	(2.46679679041674e+001dB,-1.17329884183067e+002°)	(2.65928705665660e+001dB,-1.17323338305878e+002°)
1.39288090127381e+000	(2.48940377329311e+001dB,-1.18270069613296e+002°)	(2.68189403967322e+001dB,-1.18263309664176e+002°)
1.44200074017734e+000	(2.51160906964780e+001dB,-1.19222229004719e+002°)	(2.70409933616954e+001dB,-1.19215246863426e+002°)
1.49285278645890e+000	(2.53339963162236e+001dB,-1.20185871983382e+002°)	(2.72588989828757e+001dB,-1.20178659262751e+002°)
1.54549812627976e+000	(2.55476276214606e+001dB,-1.21160442356978e+002°)	(2.74725302895710e+001dB,-1.21152990392847e+002°)
1.60000000000001e+000	(2.57568620281716e+001dB,-1.22145318726264e+002°)	(2.76817646977708e+001dB,-1.22137618567069e+002°)
1.65642387814621e+000	(2.59615822302057e+001dB,-1.23139815704302e+002°)	(2.78864849013308e+001dB,-1.23131858100322e+002°)
1.71483754005808e+000	(2.61616770914048e+001dB,-1.24143185770627e+002°)	(2.80865797640976e+001dB,-1.24134961162874e+002°)
1.77531115530856e+000	(2.63570425262481e+001dB,-1.25154621776756e+002°)	(2.82819452005593e+001dB,-1.25146120285496e+002°)
1.83791736799527e+000	(2.65475823566593e+001dB,-1.26173260111712e+002°)	(2.84724850326453e+001dB,-1.26164471524592e+002°)
1.90273138400437e+000	(2.67332091307931e+001dB,-1.27198184516363e+002°)	(2.86581118085166e+001dB,-1.27189098276152e+002°)
1.96983106135188e+000	(2.69138448907170e+001dB,-1.28228430527744e+002°)	(2.88387475702521e+001dB,-1.28219035719642e+002°)
2.03929700371083e+000	(2.70894218762118e+001dB,-1.29262990521030e+002°)	(2.90143245576372e+001dB,-1.29253275859567e+002°)
2.11121265723664e+000	(2.72598831508933e+001dB,-1.30300819294123e+002°)	(2.91847858342974e+001dB,-1.30290773109594e+002°)
2.18566441080705e+000	(2.74251831403701e+001dB,-1.31340840139801e+002°)	(2.93500858258514e+001dB,-1.31330450364256e+002°)
2.26274169979697e+000	(2.75852880714881e+001dB,-1.32381951327428e+002°)	(2.95101907591557e+001dB,-1.32371205480171e+002°)
2.34253711351302e+000	(2.77401763045061e+001dB,-1.33423032911413e+002°)	(2.96650789944762e+001dB,-1.33411918084010e+002°)
2.42514650641665e+000	(2.78898385511925e+001dB,-1.34462953770244e+002°)	(2.98147412435945e+001dB,-1.34451456611019e+002°)
2.51066911326962e+000	(2.80342779754226e+001dB,-1.35500578781641e+002°)	(2.99591806703964e+001dB,-1.35488685479639e+002°)
2.59920766833997e+000	(2.81735101734420e+001dB,-1.36534776025498e+002°)	(3.00984128711446e+001dB,-1.36522472293889e+002°)
2.69086852881191e+000	(2.83075630348681e+001dB,-1.37564423913974e+002°)	(3.02324657354604e+001dB,-1.37551694972899e+002°)
2.78576180254762e+000	(2.84364764870941e+001dB,-1.38588418145356e+002°)	(3.03613791907546e+001dB,-1.38575248704167e+002°)
2.88400148035468e+000	(2.85603021282870e+001dB,-1.39605678384159e+002°)	(3.04852048352087e+001dB,-1.39592052623054e+002°)
2.98570557291781e+000	(2.86791027563582e+001dB,-1.40615154577530e+002°)	(3.06040054667522e+001dB,-1.40601056128547e+002°)
3.09099625255953e+000	(2.87929518033815e+001dB,-1.41615832828875e+002°)	(3.07178545174724e+001dB,-1.41601244756235e+002°)
3.20000000000002e+000	(2.89019326855741e+001dB,-1.42606740754704e+002°)	(3.08268354036065e+001dB,-1.42591645534463e+002°)
3.31284775629243e+000	(2.90061380818357e+001dB,-1.43586952274070e+002°)	(3.09310408040698e+001dB,-1.43571331773071e+002°)
3.42967508011616e+000	(2.91056691527637e+001dB,-1.44555591780703e+002°)	(3.10305718794833e+001dB,-1.44539427234791e+002°)
3.55062231061713e+000	(2.92006347145156e+001dB,-1.45511837674914e+002°)	(3.11255374460256e+001dB,-1.45495109666396e+002°)
3.67583473599054e+000	(2.92911503803816e+001dB,-1.46454925235310e+002°)	(3.12160531170063e+001dB,-1.46437613669633e+002°)
3.80546276800874e+000	(2.93773376833369e+001dB,-1.47384148827770e+002°)	(3.13022404254305e+001dB,-1.47366232909379e+002°)
3.93966212270376e+000	(2.94593231932029e+001dB,-1.48298863468018e+002°)	(3.13842259411421e+001dB,-1.48280321675377e+002°)
4.07859400742167e+000	(2.95372376391372e+001dB,-1.49198485750541e+002°)	(3.14621403933283e+001dB,-1.49179295810279e+002°)
4.22242531447330e+000	(2.96112150494293e+001dB,-1.50082494182443e+002°)	(3.15361178103126e+001dB,-1.50062633042600e+002°)
4.37132882161410e+000	(2.96813919177647e+001dB,-1.50950428957516e+002°)	(3.16062946858031e+001dB,-1.50929872759852e+002°)
4.52548339959394e+000	(2.97479064045453e+001dB,-1.51801891217500e+002°)	(3.16728091802429e+001dB,-1.51780615268830e+002°)
4.68507422702604e+000	(2.98108975804932e+001dB,-1.52636541852325e+002°)	(3.17358003643878e+001dB,-1.52614520594866e+002°)
4.85029301283332e+000	(2.98705047177400e+001dB,-1.53454099889608e+002°)	(3.17954075104107e+001dB,-1.53431306870268e+002°)
5.02133822653925e+000	(2.99268666332594e+001dB,-1.54254340532653e+002°)	(3.18517694353270e+001dB,-1.54230748371261e+002°)
5.19841533667995e+000	(2.99801210872379e+001dB,-1.55037092899366e+002°)	(3.19050238993681e+001dB,-1.55012673255778e+002°)
5.38173705762382e+000	(3.00304042383216e+001dB,-1.55802237517465e+002°)	(3.19553070612281e+001dB,-1.55776961057523e+002°)
5.57152360509524e+000	(3.00778501563745e+001dB,-1.56549703627874e+002°)	(3.20027529908296e+001dB,-1.56523539988165e+002°)
5.76800296070936e+000	(3.01225903925971e+001dB,-1.57279466346660e+002°)	(3.20474932394184e+001dB,-1.57252384098043e+002°)
5.97141114583562e+000	(3.01647536056144e+001dB,-1.57991543729430e+002°)	(3.20896564656820e+001dB,-1.57963510339285e+002°)
6.18199250511907e+000	(3.02044652418379e+001dB,-1.58685993781124e+002°)	(3.21293681160966e+001dB,-1.58656975574268e+002°)
6.40000000000006e+000	(3.02418472677222e+001dB,-1.59362911449087e+002°)	(3.21667501571863e+001dB,-1.59332873567324e+002°)
6.62569551258488e+000	(3.02770179507799e+001dB,-1.60022425630661e+002°)	(3.22019208565523e+001dB,-1.59991331990893e+002°)
6.85935016023234e+000	(3.03100916872675e+001dB,-1.60664696232160e+002°)	(3.22349946104958e+001dB,-1.60632509483087e+002°)
7.10124462123427e+000	(3.03411788702440e+001dB,-1.61289911282885e+002°)	(3.22660818121772e+001dB,-1.61256592760092e+002°)
7.35166947198109e+000	(3.03703857984344e+001dB,-1.61898284153556e+002°)	(3.22952887604098e+001dB,-1.61863793833083e+002°)
7.61092553601749e+000	(3.03978146191202e+001dB,-1.62490050872577e+002°)	(3.23227176025825e+001dB,-1.62454347322839e+002°)
7.87932424540754e+000	(3.04235633029526e+001dB,-1.63065467563800e+002°)	(3.23484663094311e+001dB,-1.63028507895818e+002°)
8.15718801484335e+000	(3.04477256467128e+001dB,-1.63624808012082e+002°)	(3.23726286778617e+001dB,-1.63586547827961e+002°)
8.44485062894660e+000	(3.04703913008280e+001dB,-1.64168361364686e+002°)	(3.23952943584103e+001dB,-1.64128754704285e+002°)
8.74265764322822e+000	(3.04916458183139e+001dB,-1.64696429971940e+002°)	(3.24165489042242e+001dB,-1.64655429257662e+002°)
9.05096679918790e+000	(3.05115707221944e+001dB,-1.65209327369622e+002°)	(3.24364738384665e+001dB,-1.65166883349261e+002°)
9.37014845405209e+000	(3.05302435884528e+001dB,-1.65707376402301e+002°)	(3.24551467372618e+001dB,-1.65663438089873e+002°)
9.70058602566664e+000	(3.05477381422227e+001dB,-1.66190907488027e+002°)	(3.24726413259046e+001dB,-1.66145422102531e+002°)
1.00426764530785e+001	(3.05641243642975e+001dB,-1.66660257018058e+002°)	(3.24890275853488e+001dB,-1.66613169920071e+002°)
1.03968306733599e+001	(3.05794686063438e+001dB,-1.67115765891096e+002°)	(3.25043718674513e+001dB,-1.67067020517130e+002°)
1.07634741152477e+001	(3.05938337125887e+001dB,-1.67557778175331e+002°)	(3.25187370166296e+001dB,-1.67507315969898e+002°)
1.11430472101905e+001	(3.06072791461943e+001dB,-1.67986639892604e+002°)	(3.25321824962387e+001dB,-1.67934400237869e+002°)
1.15360059214187e+001	(3.06198611189751e+001dB,-1.68402697919833e+002°)	(3.25447645183237e+001dB,-1.68348618062799e+002°)
1.19428222916713e+001	(3.06316327229485e+001dB,-1.68806299000515e+002°)	(3.25565361751457e+001dB,-1.68750313977638e+002°)
1.23639850102382e+001	(3.06426440626887e+001dB,-1.69197788860631e+002°)	(3.25675475715209e+001dB,-1.69139831419789e+002°)
1.28000000000001e+001	(3.06529423872503e+001dB,-1.69577511421297e+002°)	(3.25778459567808e+001dB,-1.69517511941002e+002°)
1.32513910251698e+001	(3.06625722209894e+001dB,-1.69945808102700e+002°)	(3.25874758555851e+001dB,-1.69883694508459e+002°)
1.37187003204647e+001	(3.06715754925589e+001dB,-1.70303017212866e+002°)	(3.25964791968884e+001dB,-1.70238714890610e+002°)
1.42024892424686e+001	(3.06799916611931e+001dB,-1.70649473413815e+002°)	(3.26048954402649e+001dB,-1.70582905120247e+002°)
1.47033389439622e+001	(3.06878578404588e+001dB,-1.70985507261981e+002°)	(3.26127616996269e+001dB,-1.70916593031846e+002°)
1.52218510720350e+001	(3.06952089177708e+001dB,-1.71311444811664e+002°)	(3.26201128627895e+001dB,-1.71240101861630e+002°)
1.57586484908151e+001	(3.07020776710321e+001dB,-1.71627607282992e+002°)	(3.26269817080532e+001dB,-1.71553749912235e+002°)
1.63143760296867e+001	(3.07084948808281e+001dB,-1.71934310783633e+002°)	(3.26333990164644e+001dB,-1.71857850270881e+002°)
1.68897012578932e+001	(3.07144894386259e+001dB,-1.72231866081905e+002°)	(3.26393936799506e+001dB,-1.72152710578868e+002°)
1.74853152864565e+001	(3.07200884507000e+001dB,-1.72520578425996e+002°)	(3.26449928053026e+001dB,-1.72438632847034e+002°)
1.81019335983758e+001	(3.07253173377099e+001dB,-1.72800747404982e+002°)	(3.26502218137210e+001dB,-1.72715913312882e+002°)
1.87402969081042e+001	(3.07301999299796e+001dB,-1.73072666847830e+002°)	(3.26551045361130e+001dB,-1.72984842335559e+002°)
1.94011720513333e+001	(3.07347585584205e+001dB,-1.73336624756424e+002°)	(3.26596633040135e+001dB,-1.73245704324724e+002°)
2.00853529061570e+001	(3.07390141410871e+001dB,-1.73592903269078e+002°)	(3.26639190361559e+001dB,-1.73498777699716e+002°)
2.07936613467199e+001	(3.07429862656633e+001dB,-1.73841778651899e+002°)	(3.26678913209277e+001dB,-1.73744334876489e+002°)
2.15269482304953e+001	(3.07466932676736e+001dB,-1.74083521314342e+002°)	(3.26715984946534e+001dB,-1.73982642278524e+002°)
2.22860944203810e+001	(3.07501523046000e+001dB,-1.74318395846580e+002°)	(3.26750577156145e+001dB,-1.74213960369368e+002°)
2.30720118428375e+001	(3.07533794264788e+001dB,-1.74546661076945e+002°)	(3.26782850347271e+001dB,-1.74438543705260e+002°)
2.38856445833426e+001	(3.07563896419458e+001dB,-1.74768570145222e+002°)	(3.26812954615793e+001dB,-1.74656641003103e+002°)
2.47279700204763e+001	(3.07591969813483e+001dB,-1.74984370592378e+002°)	(3.26841030275478e+001dB,-1.74868495225003e+002°)
2.56000000000003e+001	(3.07618145558025e+001dB,-1.75194304462740e+002°)	(3.26867208448471e+001dB,-1.75074343674845e+002°)
2.65027820503396e+001	(3.07642546136508e+001dB,-1.75398608418630e+002°)	(3.26891611629481e+001dB,-1.75274418107500e+002°)
