Freq.	V(n001)/1A
1.00000000000000e-001	(-6.00555342515034e+001dB,-1.13772720889707e+002°)
1.03526492384138e-001	(-5.97804070259917e+001dB,-1.13853937526873e+002°)
1.07177346253629e-001	(-5.95056783839904e+001dB,-1.13960471572397e+002°)
1.10956947206785e-001	(-5.92314575066370e+001dB,-1.14092324479667e+002°)
1.14869835499704e-001	(-5.89578547844509e+001dB,-1.14249496395823e+002°)
1.18920711500272e-001	(-5.86849820529744e+001dB,-1.14431985107207e+002°)
1.23114441334492e-001	(-5.84129528158586e+001dB,-1.14639784784442e+002°)
1.27456062731926e-001	(-5.81418824527885e+001dB,-1.14872884528916e+002°)
1.31950791077289e-001	(-5.78718884096102e+001dB,-1.15131266723374e+002°)
1.36604025675440e-001	(-5.76030903677747e+001dB,-1.15414905190411e+002°)
1.41421356237310e-001	(-5.73356103901415e+001dB,-1.15723763164062e+002°)
1.46408569594563e-001	(-5.70695730399382e+001dB,-1.16057791081401e+002°)
1.51571656651040e-001	(-5.68051054696157e+001dB,-1.16416924203200e+002°)
1.56916819579350e-001	(-5.65423374761907e+001dB,-1.16801080074904e+002°)
1.62450479271247e-001	(-5.62814015195530e+001dB,-1.17210155842093e+002°)
1.68179283050743e-001	(-5.60224327002614e+001dB,-1.17644025437653e+002°)
1.74110112659225e-001	(-5.57655686932263e+001dB,-1.18102536661200e+002°)
1.80250092522166e-001	(-5.55109496339565e+001dB,-1.18585508175113e+002°)
1.86606598307362e-001	(-5.52587179540536e+001dB,-1.19092726445426e+002°)
1.93187265784969e-001	(-5.50090181629740e+001dB,-1.19623942660015e+002°)
2.00000000000000e-001	(-5.47619965734645e+001dB,-1.20178869660597e+002°)
2.07052984768276e-001	(-5.45178009685529e+001dB,-1.20757178929366e+002°)
2.14354692507259e-001	(-5.42765802085828e+001dB,-1.21358497675038e+002°)
2.21913894413569e-001	(-5.40384837775750e+001dB,-1.21982406066770e+002°)
2.29739670999407e-001	(-5.38036612690310e+001dB,-1.22628434667619e+002°)
2.37841423000545e-001	(-5.35722618123933e+001dB,-1.23296062121719e+002°)
2.46228882668984e-001	(-5.33444334424023e+001dB,-1.23984713151017e+002°)
2.54912125463853e-001	(-5.31203224149274e+001dB,-1.24693756917942e+002°)
2.63901582154579e-001	(-5.29000724741357e+001dB,-1.25422505809672e+002°)
2.73208051350880e-001	(-5.26838240772176e+001dB,-1.26170214697604e+002°)
2.82842712474620e-001	(-5.24717135843035e+001dB,-1.26936080721855e+002°)
2.92817139189126e-001	(-5.22638724225326e+001dB,-1.27719243645298e+002°)
3.03143313302080e-001	(-5.20604262345414e+001dB,-1.28518786814591e+002°)
3.13833639158701e-001	(-5.18614940227426e+001dB,-1.29333738756905e+002°)
3.24900958542495e-001	(-5.16671873017740e+001dB,-1.30163075430753e+002°)
3.36358566101487e-001	(-5.14776092721313e+001dB,-1.31005723137685e+002°)
3.48220225318451e-001	(-5.12928540286049e+001dB,-1.31860562088687e+002°)
3.60500185044333e-001	(-5.11130058169941e+001dB,-1.32726430605695e+002°)
3.73213196614724e-001	(-5.09381383525768e+001dB,-1.33602129924478e+002°)
3.86374531569939e-001	(-5.07683142130411e+001dB,-1.34486429551371e+002°)
4.00000000000001e-001	(-5.06035843176338e+001dB,-1.35378073112930e+002°)
4.14105969536552e-001	(-5.04439875029401e+001dB,-1.36275784625299e+002°)
4.28709385014519e-001	(-5.02895502039589e+001dB,-1.37178275099382e+002°)
4.43827788827140e-001	(-5.01402862472539e+001dB,-1.38084249389064e+002°)
4.59479341998816e-001	(-4.99961967606453e+001dB,-1.38992413183368e+002°)
4.75682846001090e-001	(-4.98572702016626e+001dB,-1.39901480039516e+002°)
4.92457765337968e-001	(-4.97234825044621e+001dB,-1.40810178352895e+002°)
5.09824250927707e-001	(-4.95947973425617e+001dB,-1.41717258161590e+002°)
5.27803164309160e-001	(-4.94711665023683e+001dB,-1.42621497687726e+002°)
5.46416102701760e-001	(-4.93525303603700e+001dB,-1.43521709524848e+002°)
5.65685424949240e-001	(-4.92388184549474e+001dB,-1.44416746389887e+002°)
5.85634278378253e-001	(-4.91299501420784e+001dB,-1.45305506369392e+002°)
6.06286626604162e-001	(-4.90258353231224e+001dB,-1.46186937602299e+002°)
6.27667278317403e-001	(-4.89263752317432e+001dB,-1.47060042354989e+002°)
6.49801917084991e-001	(-4.88314632666946e+001dB,-1.47923880458313e+002°)
6.72717132202974e-001	(-4.87409858569417e+001dB,-1.48777572090162e+002°)
6.96440450636902e-001	(-4.86548233458628e+001dB,-1.49620299900490e+002°)
7.21000370088667e-001	(-4.85728508816856e+001dB,-1.50451310488280e+002°)
7.46426393229449e-001	(-4.84949393022401e+001dB,-1.51269915251134e+002°)
7.72749063139880e-001	(-4.84209560030085e+001dB,-1.52075490638091e+002°)
8.00000000000004e-001	(-4.83507657787012e+001dB,-1.52867477844471e+002°)
8.28211939073106e-001	(-4.82842316298731e+001dB,-1.53645381994097e+002°)
8.57418770029038e-001	(-4.82212155274798e+001dB,-1.54408770859090e+002°)
8.87655577654280e-001	(-4.81615791295851e+001dB,-1.55157273170598e+002°)
9.18958683997632e-001	(-4.81051844459720e+001dB,-1.55890576575507e+002°)
9.51365692002181e-001	(-4.80518944474906e+001dB,-1.56608425294385e+002°)
9.84915530675938e-001	(-4.80015736183452e+001dB,-1.57310617534942e+002°)
1.01964850185541e+000	(-4.79540884506166e+001dB,-1.57997002713307e+002°)
1.05560632861832e+000	(-4.79093078812386e+001dB,-1.58667478532518e+002°)
1.09283220540352e+000	(-4.78671036725560e+001dB,-1.59321987964173e+002°)
1.13137084989848e+000	(-4.78273507382472e+001dB,-1.59960516175225e+002°)
1.17126855675651e+000	(-4.77899274170809e+001dB,-1.60583087437641e+002°)
1.21257325320832e+000	(-4.77547156973238e+001dB,-1.61189762054286e+002°)
1.25533455663481e+000	(-4.77216013949732e+001dB,-1.61780633329991e+002°)
1.29960383416998e+000	(-4.76904742893422e+001dB,-1.62355824612441e+002°)
1.34543426440595e+000	(-4.76612282194496e+001dB,-1.62915486423417e+002°)
1.39288090127381e+000	(-4.76337611449086e+001dB,-1.63459793697040e+002°)
1.44200074017734e+000	(-4.76079751748930e+001dB,-1.63988943138067e+002°)
1.49285278645890e+000	(-4.75837765686496e+001dB,-1.64503150710037e+002°)
1.54549812627976e+000	(-4.75610757110383e+001dB,-1.65002649260106e+002°)
1.60000000000001e+000	(-4.75397870663002e+001dB,-1.65487686284840e+002°)
1.65642387814621e+000	(-4.75198291130356e+001dB,-1.65958521838979e+002°)
1.71483754005808e+000	(-4.75011242633268e+001dB,-1.66415426587217e+002°)
1.77531115530856e+000	(-4.74835987686264e+001dB,-1.66858679997447e+002°)
1.83791736799527e+000	(-4.74671826146960e+001dB,-1.67288568672555e+002°)
1.90273138400437e+000	(-4.74518094079561e+001dB,-1.67705384816734e+002°)
1.96983106135188e+000	(-4.74374162550499e+001dB,-1.68109424831466e+002°)
2.03929700371083e+000	(-4.74239436375373e+001dB,-1.68500988035620e+002°)
2.11121265723664e+000	(-4.74113352830193e+001dB,-1.68880375503681e+002°)
2.18566441080705e+000	(-4.73995380344344e+001dB,-1.69247889015762e+002°)
2.26274169979697e+000	(-4.73885017183584e+001dB,-1.69603830112895e+002°)
2.34253711351302e+000	(-4.73781790135455e+001dB,-1.69948499251030e+002°)
2.42514650641665e+000	(-4.73685253204883e+001dB,-1.70282195047150e+002°)
2.51066911326962e+000	(-4.73594986328495e+001dB,-1.70605213611063e+002°)
2.59920766833997e+000	(-4.73510594112038e+001dB,-1.70917847956545e+002°)
2.69086852881191e+000	(-4.73431704598349e+001dB,-1.71220387485736e+002°)
2.78576180254762e+000	(-4.73357968067635e+001dB,-1.71513117540938e+002°)
2.88400148035468e+000	(-4.73289055874975e+001dB,-1.71796319018222e+002°)
2.98570557291781e+000	(-4.73224659326594e+001dB,-1.72070268037529e+002°)
3.09099625255953e+000	(-4.73164488597273e+001dB,-1.72335235664290e+002°)
3.20000000000002e+000	(-4.73108271689336e+001dB,-1.72591487677828e+002°)
3.31284775629243e+000	(-4.73055753434944e+001dB,-1.72839284382169e+002°)
3.42967508011616e+000	(-4.73006694541256e+001dB,-1.73078880455149e+002°)
3.55062231061713e+000	(-4.72960870678165e+001dB,-1.73310524832003e+002°)
3.67583473599054e+000	(-4.72918071609279e+001dB,-1.73534460619915e+002°)
3.80546276800874e+000	(-4.72878100364106e+001dB,-1.73750925040277e+002°)
3.93966212270376e+000	(-4.72840772452060e+001dB,-1.73960149395632e+002°)
4.07859400742167e+000	(-4.72805915115667e+001dB,-1.74162359058577e+002°)
4.22242531447330e+000	(-4.72773366623241e+001dB,-1.74357773480085e+002°)
4.37132882161410e+000	(-4.72742975599052e+001dB,-1.74546606214936e+002°)
4.52548339959394e+000	(-4.72714600389953e+001dB,-1.74729064962174e+002°)
4.68507422702604e+000	(-4.72688108466427e+001dB,-1.74905351618647e+002°)
4.85029301283332e+000	(-4.72663375857535e+001dB,-1.75075662343922e+002°)
5.02133822653925e+000	(-4.72640286617890e+001dB,-1.75240187634978e+002°)
5.19841533667995e+000	(-4.72618732325420e+001dB,-1.75399112409265e+002°)
5.38173705762382e+000	(-4.72598611607732e+001dB,-1.75552616094838e+002°)
5.57152360509524e+000	(-4.72579829697238e+001dB,-1.75700872726420e+002°)
5.76800296070936e+000	(-4.72562298011986e+001dB,-1.75844051046336e+002°)
5.97141114583562e+000	(-4.72545933761560e+001dB,-1.75982314609404e+002°)
6.18199250511907e+000	(-4.72530659577346e+001dB,-1.76115821890940e+002°)
6.40000000000006e+000	(-4.72516403164562e+001dB,-1.76244726397130e+002°)
6.62569551258488e+000	(-4.72503096976590e+001dB,-1.76369176777118e+002°)
6.85935016023234e+000	(-4.72490677908016e+001dB,-1.76489316936201e+002°)
7.10124462123427e+000	(-4.72479087007968e+001dB,-1.76605286149638e+002°)
7.35166947198109e+000	(-4.72468269210846e+001dB,-1.76717219176584e+002°)
7.61092553601749e+000	(-4.72458173085588e+001dB,-1.76825246373755e+002°)
7.87932424540754e+000	(-4.72448750591616e+001dB,-1.76929493808497e+002°)
8.15718801484335e+000	(-4.72439956868718e+001dB,-1.77030083370879e+002°)
8.44485062894660e+000	(-4.72431750021821e+001dB,-1.77127132884619e+002°)
8.74265764322822e+000	(-4.72424090928904e+001dB,-1.77220756216562e+002°)
9.05096679918790e+000	(-4.72416943058963e+001dB,-1.77311063384527e+002°)
9.37014845405209e+000	(-4.72410272301404e+001dB,-1.77398160663338e+002°)
9.70058602566664e+000	(-4.72404046807621e+001dB,-1.77482150688921e+002°)
1.00426764530785e+001	(-4.72398236841249e+001dB,-1.77563132560313e+002°)
1.03968306733599e+001	(-4.72392814639117e+001dB,-1.77641201939509e+002°)
1.07634741152477e+001	(-4.72387754281229e+001dB,-1.77716451149054e+002°)
1.11430472101905e+001	(-4.72383031570024e+001dB,-1.77788969267314e+002°)
1.15360059214187e+001	(-4.72378623978497e+001dB,-1.77858842221322e+002°)
1.19428222916713e+001	(-4.72374510278126e+001dB,-1.77926152877542e+002°)
1.23639850102382e+001	(-4.72370670847291e+001dB,-1.77990981129534e+002°)
1.28000000000001e+001	(-4.72367087302595e+001dB,-1.78053403983849e+002°)
1.32513910251698e+001	(-4.72363742481550e+001dB,-1.78113495643135e+002°)
1.37187003204647e+001	(-4.72360620293702e+001dB,-1.78171327586925e+002°)
1.42024892424686e+001	(-4.72357705914344e+001dB,-1.78226968649618e+002°)
1.47033389439622e+001	(-4.72354985309043e+001dB,-1.78280485096758e+002°)
1.52218510720350e+001	(-4.72352445436426e+001dB,-1.78331940698177e+002°)
1.57586484908151e+001	(-4.72350074119968e+001dB,-1.78381396799095e+002°)
1.63143760296867e+001	(-4.72347859990693e+001dB,-1.78428912388798e+002°)
1.68897012578932e+001	(-4.72345792426192e+001dB,-1.78474544166980e+002°)
1.74853152864565e+001	(-4.72343861510948e+001dB,-1.78518346607760e+002°)
1.81019335983758e+001	(-4.72342057983917e+001dB,-1.78560372021445e+002°)
1.87402969081042e+001	(-4.72340373188209e+001dB,-1.78600670614067e+002°)
1.94011720513333e+001	(-4.72338799110455e+001dB,-1.78639290544581e+002°)
2.00853529061570e+001	(-4.72337328059975e+001dB,-1.78676277980433e+002°)
2.07936613467199e+001	(-4.72335952972116e+001dB,-1.78711677150110e+002°)
2.15269482304953e+001	(-4.72334667390014e+001dB,-1.78745530394032e+002°)
2.22860944203810e+001	(-4.72333465068818e+001dB,-1.78777878213997e+002°)
2.30720118428375e+001	(-4.72332340240374e+001dB,-1.78808759319616e+002°)
2.38856445833426e+001	(-4.72331287499846e+001dB,-1.78838210673338e+002°)
2.47279700204763e+001	(-4.72330301866311e+001dB,-1.78866267533267e+002°)
2.56000000000003e+001	(-4.72329378465609e+001dB,-1.78892963494718e+002°)
2.65027820503396e+001	(-4.72328512861189e+001dB,-1.78918330528808e+002°)
2.74374006409294e+001	(-4.72327701038963e+001dB,-1.78942399019755e+002°)
2.84049784849372e+001	(-4.72326939029064e+001dB,-1.78965197801099e+002°)
2.94066778879245e+001	(-4.72326223240705e+001dB,-1.78986754188829e+002°)
3.04437021440700e+001	(-4.72325550027344e+001dB,-1.79007094014266e+002°)
3.15172969816302e+001	(-4.72324916363065e+001dB,-1.79026241652975e+002°)
3.26287520593735e+001	(-4.72324319135468e+001dB,-1.79044220054862e+002°)
3.37794025157865e+001	(-4.72323755474919e+001dB,-1.79061050770468e+002°)
3.49706305729130e+001	(-4.72323222673720e+001dB,-1.79076753976503e+002°)
3.62038671967517e+001	(-4.72322718243066e+001dB,-1.79091348499462e+002°)
3.74805938162085e+001	(-4.72322239549694e+001dB,-1.79104851838721e+002°)
3.88023441026667e+001	(-4.72321784499998e+001dB,-1.79117280185458e+002°)
4.01707058123142e+001	(-4.72321350911309e+001dB,-1.79128648443321e+002°)
4.15873226934398e+001	(-4.72320936488027e+001dB,-1.79138970246171e+002°)
4.30538964609907e+001	(-4.72320539520945e+001dB,-1.79148257972226e+002°)
4.45721888407621e+001	(-4.72320157821887e+001dB,-1.79156522761693e+002°)
4.61440236856751e+001	(-4.72319789766330e+001dB,-1.79163774526925e+002°)
4.77712891666852e+001	(-4.72319433586814e+001dB,-1.79170021966188e+002°)
4.94559400409527e+001	(-4.72319087359668e+001dB,-1.79175272574099e+002°)
5.12000000000007e+001	(-4.72318749633774e+001dB,-1.79179532648404e+002°)
5.30055641006792e+001	(-4.72318418783813e+001dB,-1.79182807299510e+002°)
5.48748012818590e+001	(-4.72318093081453e+001dB,-1.79185100456388e+002°)
5.68099569698744e+001	(-4.72317771030050e+001dB,-1.79186414869982e+002°)
5.88133557758490e+001	(-4.72317451084845e+001dB,-1.79186752117455e+002°)
6.08874042881402e+001	(-4.72317131706094e+001dB,-1.79186112603835e+002°)
6.30345939632606e+001	(-4.72316811359149e+001dB,-1.79184495562487e+002°)
6.52575041187471e+001	(-4.72316488504739e+001dB,-1.79181899054211e+002°)
6.75588050315731e+001	(-4.72316161523626e+001dB,-1.79178319965263e+002°)
6.99412611458260e+001	(-4.72315829051345e+001dB,-1.79173754002090e+002°)
7.24077343935035e+001	(-4.72315489212986e+001dB,-1.79168195689761e+002°)
7.49611876324171e+001	(-4.72315140654915e+001dB,-1.79161638360587e+002°)
7.76046882053335e+001	(-4.72314781492207e+001dB,-1.79154074151253e+002°)
8.03414116246284e+001	(-4.72314410001382e+001dB,-1.79145493990121e+002°)
8.31746453868797e+001	(-4.72314024534539e+001dB,-1.79135887586742e+002°)
8.61077929219816e+001	(-4.72313623172718e+001dB,-1.79125243421526e+002°)
8.91443776815244e+001	(-4.72313204055087e+001dB,-1.79113548730267e+002°)
9.22880473713504e+001	(-4.72312765031131e+001dB,-1.79100789491032e+002°)
9.55425783333705e+001	(-4.72312304059869e+001dB,-1.79086950405173e+002°)
9.89118800819056e+001	(-4.72311818998080e+001dB,-1.79072014880387e+002°)
1.02400000000002e+002	(-4.72311307376940e+001dB,-1.79055965012590e+002°)
1.06011128201359e+002	(-4.72310766742423e+001dB,-1.79038781562546e+002°)
1.09749602563718e+002	(-4.72310194628264e+001dB,-1.79020443933102e+002°)
1.13619913939749e+002	(-4.72309588295812e+001dB,-1.79000930146741e+002°)
1.17626711551698e+002	(-4.72308944692954e+001dB,-1.78980216820025e+002°)
1.21774808576280e+002	(-4.72308260801025e+001dB,-1.78958279133422e+002°)
1.26069187926521e+002	(-4.72307533333840e+001dB,-1.78935090804247e+002°)
1.30515008237494e+002	(-4.72306758732621e+001dB,-1.78910624055893e+002°)
1.35117610063146e+002	(-4.72305933486398e+001dB,-1.78884849582324e+002°)
1.39882522291652e+002	(-4.72305053357072e+001dB,-1.78857736520516e+002°)
1.44815468787007e+002	(-4.72304114335468e+001dB,-1.78829252405644e+002°)
1.49922375264834e+002	(-4.72303111909654e+001dB,-1.78799363139634e+002°)
1.55209376410667e+002	(-4.72302041071367e+001dB,-1.78768032951581e+002°)
1.60682823249257e+002	(-4.72300896956266e+001dB,-1.78735224349278e+002°)
1.66349290773760e+002	(-4.72299673869697e+001dB,-1.78700898085603e+002°)
1.72215585843964e+002	(-4.72298366018106e+001dB,-1.78665013105170e+002°)
1.78288755363049e+002	(-4.72296967137275e+001dB,-1.78627526500594e+002°)
1.84576094742701e+002	(-4.72295470585069e+001dB,-1.78588393461567e+002°)
1.91085156666741e+002	(-4.72293868982951e+001dB,-1.78547567227596e+002°)
1.97823760163812e+002	(-4.72292154874100e+001dB,-1.78504999025793e+002°)
2.04800000000003e+002	(-4.72290320042122e+001dB,-1.78460638023034e+002°)
2.12022256402718e+002	(-4.72288355566489e+001dB,-1.78414431267438e+002°)
2.19499205127437e+002	(-4.72286252183738e+001dB,-1.78366323622560e+002°)
2.27239827879498e+002	(-4.72283999685811e+001dB,-1.78316257712948e+002°)
2.35253423103397e+002	(-4.72281587367483e+001dB,-1.78264173852565e+002°)
2.43549617152561e+002	(-4.72279003693454e+001dB,-1.78210009981920e+002°)
2.52138375853043e+002	(-4.72276236386174e+001dB,-1.78153701596647e+002°)
2.61030016474989e+002	(-4.72273272149120e+001dB,-1.78095181679607e+002°)
2.70235220126293e+002	(-4.72270096750444e+001dB,-1.78034380624686e+002°)
2.79765044583305e+002	(-4.72266695167601e+001dB,-1.77971226156548e+002°)
2.89630937574015e+002	(-4.72263051035506e+001dB,-1.77905643260475e+002°)
2.99844750529669e+002	(-4.72259147034710e+001dB,-1.77837554092684e+002°)
3.10418752821335e+002	(-4.72254964625610e+001dB,-1.77766877899850e+002°)
3.21365646498515e+002	(-4.72250483792656e+001dB,-1.77693530936522e+002°)
3.32698581547520e+002	(-4.72245683233774e+001dB,-1.77617426370942e+002°)
3.44431171687928e+002	(-4.72240540013854e+001dB,-1.77538474199068e+002°)
3.56577510726099e+002	(-4.72235029820925e+001dB,-1.77456581143126e+002°)
3.69152189485403e+002	(-4.72229126397620e+001dB,-1.77371650565970e+002°)
3.82170313333483e+002	(-4.72222801707515e+001dB,-1.77283582366412e+002°)
3.95647520327624e+002	(-4.72216025680708e+001dB,-1.77192272881879e+002°)
4.09600000000007e+002	(-4.72208766266540e+001dB,-1.77097614780527e+002°)
4.24044512805436e+002	(-4.72200989223228e+001dB,-1.76999496957535e+002°)
4.38998410254874e+002	(-4.72192657621713e+001dB,-1.76897804438118e+002°)
4.54479655758998e+002	(-4.72183731931646e+001dB,-1.76792418261731e+002°)
4.70506846206794e+002	(-4.72174170252498e+001dB,-1.76683215358909e+002°)
4.87099234305124e+002	(-4.72163927499165e+001dB,-1.76570068457141e+002°)
5.04276751706087e+002	(-4.72152955293114e+001dB,-1.76452845965042e+002°)
5.22060032949979e+002	(-4.72141202170204e+001dB,-1.76331411843056e+002°)
5.40470440252588e+002	(-4.72128612807594e+001dB,-1.76205625505956e+002°)
5.59530089166611e+002	(-4.72115128309601e+001dB,-1.76075341686962e+002°)
5.79261875148031e+002	(-4.72100685485218e+001dB,-1.75940410337095e+002°)
5.99689501059339e+002	(-4.72085216833742e+001dB,-1.75800676498281e+002°)
6.20837505642671e+002	(-4.72068650260913e+001dB,-1.75655980185276e+002°)
6.42731292997030e+002	(-4.72050908492285e+001dB,-1.75506156280492e+002°)
6.65397163095041e+002	(-4.72031909130515e+001dB,-1.75351034402998e+002°)
6.88862343375856e+002	(-4.72011564170165e+001dB,-1.75190438799302e+002°)
7.13155021452198e+002	(-4.71989779456086e+001dB,-1.75024188240003e+002°)
7.38304378970806e+002	(-4.71966454195537e+001dB,-1.74852095916885e+002°)
7.64340626666967e+002	(-4.71941481283636e+001dB,-1.74673969301913e+002°)
7.91295040655249e+002	(-4.71914745776048e+001dB,-1.74489610099932e+002°)
8.19200000000016e+002	(-4.71886125326723e+001dB,-1.74298814109104e+002°)
8.48089025610873e+002	(-4.71855489129135e+001dB,-1.74101371161613e+002°)
8.77996820509748e+002	(-4.71822697606168e+001dB,-1.73897065031920e+002°)
9.08959311517996e+002	(-4.71787601957879e+001dB,-1.73685673359044e+002°)
9.41013692413589e+002	(-4.71750043308120e+001dB,-1.73466967600017e+002°)
9.74198468610248e+002	(-4.71709852001066e+001dB,-1.73240712987806e+002°)
1.00855350341218e+003	(-4.71666847694939e+001dB,-1.73006668446300e+002°)
1.04412006589996e+003	(-4.71620837434104e+001dB,-1.72764586651047e+002°)
1.08094088050518e+003	(-4.71571616252221e+001dB,-1.72514213937051e+002°)
1.11906017833322e+003	(-4.71518965075021e+001dB,-1.72255290407822e+002°)
